mhz,zreal,zimag,zmag,zphase,vswr,s11,s11_real,s11_imag,s11_ang,gain_max,gain_net,gain_max_theta,gain_max_phi,gain_viewer,gain_viewer_net,fb_ratio
13,19.2793175394056,-37.156768825378741,41.86069223421741,-62.576816927845542,10.735114229078707,-1.622925391673335,-1.6229253916733357,-24.068253561151479,-158.76431853187935,4.2023288834047197,-0.85875093056113272,0,270,-0.3909276066300677,-5.4520074205959199,0.84104307836390935
13.199999999999999,26.48740659389151,-14.517900459715163,30.205167468966717,-28.727401780481991,7.5912512736961881,-2.3017710608136577,-2.3017710608136572,-26.006455396024212,-171.54951263451642,4.6811804650266149,0.82378562222317964,0,270,-0.84619509878573806,-4.7035899415891738,1.7012111741086007
13.399999999999999,42.471004490948751,15.457047524457986,45.196311139777123,19.99864919733082,4.7385422383727587,-3.7219858178737875,-3.7219858178737883,25.88501035393265,170.7484100826527,5.0922424303854257,2.6932582535334886,0,270,-1.7615622094303796,-4.1605463862823164,2.9619037618515147
13.599999999999998,82.98088343270787,50.10729287272558,96.935895386104249,31.125317621831684,2.5903313852799554,-7.0729381134623912,-7.0729381134623921,22.251197837898946,146.77825511004966,5.2818567191644235,4.3333191981480867,0,270,-3.3828718444648347,-4.3314093654811714,4.7773103016690666
13.799999999999997,163.66331488662905,45.482813415678386,169.8657321412571,15.530864879934411,1.3776779154193093,-15.980628671792267,-15.980628671792264,18.417994824828686,121.49283659731023,5.1241179715949414,5.013134371913905,0,270,-5.7627379888237238,-5.8737215885047602,7.3168344009405661
13.999999999999996,187.90992122678287,-28.298975950145234,190.02886763668999,-8.5643066638655814,1.1718380787454179,-22.03416069912091,-22.03416069912091,-16.518200240134441,-108.96099286285747,4.6386740300720106,4.6114011393522851,0,270,-8.1013003302967626,-8.128573221016488,10.516794610320808
14.199999999999996,153.98382298000826,-47.446752325705638,161.12793688803742,-17.125538982149873,1.4541846971018375,-14.653494927439999,-14.653494927439997,-19.175378152092708,-126.48885541998742,4.0664077627994404,3.9150585017106243,40,270,-8.6570018821965267,-8.8083511432853427,9.0145349358564619
14.399999999999995,142.20890511053719,-23.179006243804434,144.08552676514077,-9.2573846538727071,1.4436068996348084,-14.820661007759448,-14.820661007759446,-23.386958456293399,-154.2702096108861,3.8041527604552732,3.6586153102731043,-50,270,-7.5750646061548643,-7.7206020563370332,5.5143175789483223
14.599999999999994,163.66415766548957,19.50879520640121,164.82278238993399,6.7975927302281969,1.2554105092587868,-18.919736734406353,-18.919736734406353,22.542204207992054,148.69785546322368,3.6769792859887045,3.620924803496187,-60,270,-6.2592371011821033,-6.3152915836746208,3.1399608445181175
14.799999999999994,246.71594450292073,76.522550692511444,258.31077801062861,17.232039499023038,1.4931979386112764,-14.074710128187,-14.074710128186998,7.4094859330574447,48.876084084978025,3.5986930675345463,3.4253316149768951,70,270,-5.1881822509653581,-5.3615437035230089,1.6225249192845332
14.999999999999993,516.68277461877415,49.768864993695836,519.07420424301154,5.5019746735510653,2.6115545198357784,-7.0089834559610402,-7.0089834559610402,0.75176191018556282,4.9589375924426093,3.510629525839585,2.546336900168094,-70,270,-4.3768461379866599,-5.3411387636581509,1.2742371325083326
15.199999999999992,466.2000169349152,-519.83698163675365,698.26423599331349,-48.11362142046989,5.4755967738719633,-3.2085769180574437,-3.2085769180574437,-3.777621746072275,-24.918781109836349,3.4830973539123149,0.66241589603757189,80,270,-3.7702570906177835,-6.5909385484925265,0.49234672511182292
15.399999999999991,89.457607610957481,-430.24258036531472,439.44435542953596,-78.254209620115489,12.95194284068487,-1.3439236169927575,-1.3439236169927569,-7.3283897841373413,-48.341139794726658,3.4924346781938445,-2.2563099841185954,-80,270,-3.3322106333539567,-9.0809552956663957,0.365556417518898
15.599999999999991,19.333023363938175,-304.93137710888197,305.54363115258968,-86.372232954580326,34.460390314880584,-0.50425017811804829,-0.50425017811804729,-10.061975400225213,-66.373019689296584,3.5829746690604862,-6.0180937279793101,-80,270,-3.0707444055547173,-12.671812802594513,0.24663681400516602
15.79999999999999,4.2494130339554879,-236.8278168736654,236.86593751799674,-88.972049345187273,113.0720352374169,-0.15363862666538047,-0.15363862666538119,-12.18103999030814,-80.351260558114177,3.9714991157930202,-10.617932681040909,-90,90,-3.0949040337915297,-17.684335830625457,3.6769806299661265e-12
15.999999999999989,0.64909027339263703,-194.50141733461518,194.50250040386925,-89.808793187331844,599.53914982284095,-0.028975247723203264,-0.028975247723204228,-13.885829684516365,-91.596770056901036,4.8164726117754944,-16.955578493799983,-90,290,-3.5565473709649837,-25.328598476540463,6.846725012528285e-14
16.199999999999989,0.22219465842100544,-164.55164091002757,164.55179092507285,-89.922633349955973,1509.4256300391819,-0.01150886898431383,-0.011508868984314472,-15.327664513880961,-101.10771872369941,6.1304361835308177,-19.642833631874517,0,90,0.81606474004584861,-24.957205075359486,0.0487089771155087
16.399999999999988,0.84718751265358072,-141.08220528163901,141.08474890579819,-89.655947494665824,353.54880844700961,-0.049135579550119393,-0.049135579550119234,-16.61510594622127,-109.60022363835334,4.7969196574715287,-14.691507253377916,0,90,0.64658021568072199,-18.841846695168723,0.66678502557457042
16.599999999999987,1.9103322878508719,-121.04196798145553,121.0570418533086,-89.095810374047986,143.04353423112636,-0.12144598060934651,-0.12144598060934605,-17.832570674750777,-117.63113279719551,4.2189194821014988,-11.375673658301295,0,90,0.46376630176566769,-15.130826838637125,0.81714063714130214
16.799999999999986,3.3138921176636442,-102.49167796637506,102.54523847225012,-88.148084691749091,76.204696466419833,-0.2279751423812848,-0.22797514238128644,-19.059334494154527,-125.72338266868485,4.0400574905449744,-8.8723996177321656,0,90,0.43851796977336499,-12.473939138503775,0.66793152516131171
16.999999999999986,5.3229704399787847,-83.7895017874188,83.958410085522374,-86.365004666992647,44.171683719646914,-0.39334583899633796,-0.39334583899633824,-20.391836930432255,-134.51312890848561,3.8811406817900962,-6.7441454397006062,0,90,0.34826800406802533,-10.277018117422678,0.16360393048091668
17.199999999999985,8.9087326270582121,-62.984310611352001,63.611232500303593,-81.949279088990778,24.680388296186678,-0.70425533456095357,-0.70425533456095391,-21.97858275385083,-144.97997141113305,4.2570043547604426,-3.9909075728517687,0,270,-0.0075693947664332616,-8.2554813223786443,0.77471107468240163
17.399999999999984,17.343528486338286,-37.223170138937,41.06534275455008,-65.017603025832884,11.934049693091481,-1.459069636941883,-1.4590696369418836,-24.068070203483344,-158.76310902761867,4.7693598240702162,-0.67685234740696032,0,270,-0.8573864451881712,-6.3035986166653473,2.199679874638794
17.599999999999984,42.557176763610052,-4.8541373042137073,42.83311736328924,-6.5071230342209407,4.7024594243558759,-3.7514379202555173,-3.7514379202555173,-26.846014445734699,-177.08759706826626,5.0250253501285114,2.6476317571982557,0,270,-2.3592419420777113,-4.7366355350079665,4.1123604117792976
17.799999999999983,109.08196279576961,2.5756694285902673,109.11236722014164,1.3526303235347945,1.8339164960505319,-10.625289686648582,-10.62528968664858,26.969144948279183,177.89981762582747,4.9296205907492885,4.5362750897279227,0,270,-4.3769361493794108,-4.7702816504007775,6.4286448837726793
17.999999999999982,133.87589670777353,-66.299096840913123,149.39319248624156,-26.345903027883768,1.7589429761557154,-11.210671564629822,-11.210671564629822,-18.751523443132925,-123.69293157559409,4.5628190209056356,4.221082050313691,0,270,-6.3141395704955849,-6.6558765410875296,8.8278004512039043
18.199999999999982,97.712588648832281,-89.115134251176059,132.24695509939366,-42.365216647160594,2.5495225417927445,-7.1994408004251218,-7.1994408004251209,-18.536221490003449,-122.27270938205872,4.0610532813427938,3.1428429848295982,0,270,-7.3532205086603133,-8.2714308051735088,10.416013978800422
18.399999999999981,77.506975282912563,-79.563510416381163,111.07512506085065,-45.750134884752946,3.0482654338211783,-5.9176548859578997,-5.917654885957897,-19.858776193213806,-130.99683619262399,3.7085424305724946,2.4242905520067173,-40,270,-7.2854565927009052,-8.5697084712666829,6.9414775460706633
18.59999999999998,71.990894120653735,-63.846714691692078,96.224174785827628,-41.568923744623248,3.0984622009150282,-5.8143956654895188,-5.8143956654895179,-21.266253263254789,-140.28114663528044,3.5914955321381417,2.2711387886411138,60,270,-6.6201807126195078,-7.9405374561165356,3.4191546513340523
18.799999999999979,77.482709778183846,-46.138762719651211,90.179574959469306,-30.772602458116602,2.7412028685612593,-6.6432376939914795,-6.6432376939914795,-22.728021684927601,-149.92358565681792,3.5349165966216098,2.4747031127164139,70,270,-5.8113874739196181,-6.8716009578248141,1.8639089359602699
18.999999999999979,99.320892559712775,-26.928560309280019,102.9066910321605,-15.169734664947025,2.0617629456459778,-9.1988799583294618,-9.1988799583294636,-24.238124307948521,-159.88485738964113,3.5345374029866439,2.9780933619423227,-70,270,-5.042851324959913,-5.5992953660042346,1.5250757167647835
19.199999999999978,166.54991547099465,-22.915840909659039,168.11903553135281,-7.8342177530046131,1.2482062276543302,-19.140469449410737,-19.140469449410737,-21.528124846657064,-142.0085616874816,3.5300092710767745,3.4767497050686393,80,270,-4.3711043823226889,-4.4243639483308241,0.60507966689760184
19.399999999999977,201.24092560275221,-208.88599613341586,290.0539079517838,-46.067912216050388,2.7159505436915814,-6.7113031717155653,-6.7113031717155653,-9.4230116102261334,-62.158145916756141,3.6376635043898009,2.5960834862823732,-80,270,-3.8499391676435222,-4.8915191857509495,0.44998010111388148
19.599999999999977,18.718436430553879,-174.36423960478689,175.36609682421576,-83.872621561506108,18.846292265003537,-0.92262763229740208,-0.92262763229740197,-14.788643174780402,-97.552107372048567,4.0179923855010449,-3.1627361367105289,-90,90,-3.7538067350163846,-10.934535257227958,8.0887787894414409e-12
19.799999999999976,0.3959348345457227,-104.97255380318559,104.97330049282007,-89.783893150253647,644.2887371714429,-0.026962745464126515,-0.026962745464124575,-18.891039460252955,-124.61323787559485,5.6545140404125824,-16.429162351815389,-90,90,-4.1848508964578057,-26.268527288685778,6.1524092366095356e-13
19.999999999999975,1.7668619490178505,-67.127153331358727,67.150402199232076,-88.49225895365349,125.94750492121078,-0.13793162749599683,-0.13793162749599513,-21.661807145488496,-142.89038632921651,4.3112933932836803,-10.738694399808283,0,90,0.50193126467528393,-14.54805652841668,1.0319425176335952
20.199999999999974,5.1126095856915708,-37.737349584548426,38.082099869126473,-82.28461360562379,40.512585622610416,-0.42888668836162058,-0.42888668836162158,-24.045793541141727,-158.61616279793711,3.8007412768416748,-6.4663548781337017,0,90,0.42863872189038288,-9.8384574330849937,1.0497473355257267
20.399999999999974,10.539321892940279,-6.3659155744511242,12.312683991073987,-31.132634017575725,18.995832000021814,-0.91535098206563925,-0.91535098206563892,-26.733240678095381,-176.34369388800278,3.5870402574529607,-3.6245662144395756,0,270,0.34342836165335011,-6.8681781102391861,0.018398111269517507
20.599999999999973,27.370490287525534,37.245094893851146,46.220567199370308,53.688762626512862,7.565219498159963,-2.3097849265026698,-2.3097849265026711,24.031531039495285,158.52208134127039,4.6342708930748833,0.78831619906349237,0,270,-0.73644767140643497,-4.5824023654178259,2.2995532129684833
20.799999999999972,103.57597161801496,85.547180005737758,134.33652483055357,39.554545191535034,2.3823606191100497,-7.7719711218184662,-7.7719711218184671,18.598403825936053,122.68289021067501,4.9683299765237026,4.1746067215902851,0,270,-3.102202170572899,-3.8959254255063165,5.3666602251606976
20.999999999999972,189.15042615916784,-11.617062143514248,189.50683325157718,-3.5145234911831205,1.0851332448010522,-27.780692520741979,-27.780692520741972,-19.909822428730447,-131.33355862139624,4.6546296277618806,4.6473839787690778,0,270,-5.7519299995367925,-5.7591756485295953,8.5362267895350428
21.199999999999971,132.1184919110442,-63.820444617287194,146.72540698869051,-25.783078922011764,1.7605124616703176,-11.197667545031923,-11.197667545031923,-19.084397921475521,-125.88871157169733,4.121297509618663,3.7784942183413426,0,270,-7.3365313025426504,-7.6793345938199709,10.678684241480955
21.39999999999997,100.83790565019711,-55.849513583482882,115.27120795510774,-28.980067453848161,2.1844525473145033,-8.5903423081774797,-8.5903423081774797,-21.237902496959663,-140.09413306243164,3.7114304732094681,3.0647609027339509,40,270,-7.5849901536988824,-8.2316597241743992,7.3437016093513297
21.599999999999969,90.062442431951567,-41.293576322906738,99.077762299843627,-24.63142767409802,2.3379303831664688,-7.9408751678093701,-7.9408751678093692,-22.938366698770899,-151.31110979497612,3.5867387832525899,2.8261089529789531,-50,270,-7.1485730235043032,-7.9092028537779395,4.9633931652534455
21.799999999999969,89.144811905750103,-26.807471193596864,93.088334400756636,-16.736991153609598,2.2935706996787659,-8.1175364101189249,-8.1175364101189231,-24.423634435228422,-161.10856017570015,3.5718637551346943,2.8442451785480278,-60,270,-6.5335215074483575,-7.2611400840350235,3.1405080254198263
21.999999999999968,95.215083059936617,-12.721008705167129,96.061106097044117,-7.6098165949257739,2.1114791209891042,-8.9413116427654966,-8.9413116427654966,-25.864135989283092,-170.6107139980592,3.5795626913770744,2.9866926964557345,70,270,-5.9259108332026411,-6.5187808281239814,1.7850007636519014
22.199999999999967,109.38500410846822,0.96635146186037102,109.38927259543071,0.50616097133282001,1.8284650942593623,-10.665532170681786,-10.665532170681784,27.16777114950672,179.21003954950567,3.5918770841334835,3.2023272666243825,-70,270,-5.3705547892779526,-5.7601046067870536,1.5418561509453246
22.399999999999967,137.38034642470646,12.149873303813614,137.9165653758499,5.0540706054530826,1.4659223083394486,-14.473317691834797,-14.473317691834799,25.310252742438564,166.95706725513827,3.5975790585487468,3.4397007207192987,80,270,-4.8702648014339776,-5.0281431392634257,0.65662408137177064
22.599999999999966,193.65395945508953,5.7427737345694627,193.73909120980184,1.6985983498818664,1.0444450507902059,-33.255040710841115,-33.255040710841108,20.772032986619685,137.02106192555067,3.6540462968847391,3.651993325553307,80,270,-4.4214929157064624,-4.4235458870378945,0.55106004006367237
22.799999999999965,263.84678222730474,-100.26911202002357,282.25700933189739,-20.808182807925878,1.6683971910671735,-12.024317174133735,-12.024317174133731,-6.8696377672761031,-45.315018636951422,3.7243563589878863,3.4429412759103561,-80,270,-4.0321963228970628,-4.3136114059745925,0.44321106072134714
22.999999999999964,113.38414534798208,-223.78227371822709,250.86743600314458,-63.129957370856765,4.3070120056836849,-4.1082859707516288,-4.108285970751627,-11.465180581894597,-75.629150960396728,3.8584303598786844,1.7237896945534592,-80,270,-3.7568413357923589,-5.8914820011175841,0.32606608860224362
23.199999999999964,13.116914838528373,-140.50134200127363,141.11229768889763,-84.666443845717069,22.794075715933381,-0.76260767732377099,-0.76260767732377011,-16.625383297245136,-109.66801736619784,4.3410012572036809,-3.5895557486861014,-90,90,-3.8884300156565121,-11.818987021546295,5.3684110062988304e-12
23.399999999999963,0.40368083980645014,-76.324327958178387,76.325395488579019,-89.696964340049504,567.59473369891111,-0.030605987368876333,-0.030605987368876427,-20.954393871077119,-138.22399098204389,4.4477804507254017,-17.087292722105651,0,270,-0.9740006237939387,-22.509073796624993,1.42880196196072
23.599999999999962,2.9485455533149665,-35.192528633850067,35.315832037831562,-85.210756890294405,69.930707332538418,-0.24843111389697348,-0.24843111389697436,-24.261093146707996,-160.03636950595865,3.7192868763414477,-8.8301198144016162,0,90,0.14895185436982283,-12.400454836373241,1.2945692477498183
23.799999999999962,7.9805260705563201,-1.8947947000746872,8.2023803446475352,-13.356274995560943,25.063257496025145,-0.69348552692770982,-0.69348552692770948,-27.122689806195464,-178.91266405729851,3.2502230447646556,-5.0593757764737539,0,90,0.12856449825286745,-8.1810343229855427,1.675594115088048
23.999999999999961,14.796794714559885,33.038300909555701,36.200475974980996,65.873923939695288,13.887256111142914,-1.2530840067514568,-1.2530840067514557,24.428580682366857,161.14118770117594,3.305418496891062,-2.7041103360760275,0,90,0.38028715657941864,-5.6292416763876707,1.1444250360888417
24.19999999999996,29.861692844230117,80.330248212708128,85.701047119848198,69.608057544863854,7.7991052696717551,-2.2397349627875753,-2.2397349627875762,20.535792093712296,135.46271768272854,3.5687475482659217,-0.37897498487523418,0,270,0.15113828324429404,-3.7965842498968616,0.66129839805785107
24.399999999999959,90.690721504512268,151.87352744917547,176.89085704711948,59.156617265422433,3.6569606135863335,-4.874348966994936,-4.874348966994936,14.880628336933654,98.158880171213255,4.7186428064555717,3.0083942509882275,0,270,-1.3213075673133923,-3.0315561227807364,3.5654440479127896
24.599999999999959,271.82493236700196,103.6720352787177,290.92384700322674,20.87648420094683,1.706646785605092,-11.664583934834196,-11.664583934834194,6.502466974470237,42.893005732835903,4.91739129268728,4.610795986583792,0,270,-4.0257519073017054,-4.3323472134051935,7.0833559103893915
24.799999999999958,217.81417259230363,-54.662964090521022,224.56859403138148,-14.08807920826035,1.3159948589065626,-17.301151481989702,-17.301151481989702,-9.7774173390715404,-64.495955092688845,4.5064224224448379,4.424812442285246,0,270,-6.7232378866367348,-6.8048478667963268,10.534303431339803
24.999999999999957,147.95983658274184,-57.324777665323708,158.67653694220348,-21.17809739730394,1.5626107695779867,-13.16949211468603,-13.169492114686028,-18.628040217515018,-122.87838430835949,3.9290701689607128,3.7145252743979258,-10,270,-8.1217400511798861,-8.3362849457426726,12.227897156537214
25.199999999999957,121.60599671031169,-39.106100528247623,127.73920907236645,-17.826771162938503,1.7412715128304475,-11.359494849847277,-11.359494849847273,-22.217383798987026,-146.55520349431771,3.6432307609671613,3.313454565814228,50,270,-8.1738889378030137,-8.5036651329559465,6.0173886954327127
25.399999999999956,112.37711452697009,-21.844581485182413,114.48057306665847,-11.000335659850435,1.8105074897513738,-10.80055429095189,-10.80055429095189,-24.558956123788931,-162.00119892127037,3.5997021317812807,3.2226103628981426,60,270,-7.622300549880646,-7.9993923187637836,3.6835780569575833
25.599999999999955,111.14029070144601,-6.599810667481866,111.33607554628703,-3.398387317060211,1.8023604723210205,-10.863089464357419,-10.863089464357415,-26.459374074769176,-174.53715464180226,3.6043380007463268,3.2328744854450853,70,270,-6.9382895884926796,-7.3097531037939207,2.0385589056329518
25.799999999999955,115.00211532413714,7.3510862194061382,115.2368213620598,3.6574455160376811,1.7426049481396102,-11.34810833035665,-11.34810833035665,26.335525410826413,173.72019678975045,3.6460844489069166,3.315408686668873,-70,270,-6.2729837645759945,-6.6036595268140381,1.7314718918948522
25.999999999999954,123.51366594026646,20.653896024360368,125.22862729818941,9.4931395335912843,1.6468835469891061,-12.23817458130668,-12.23817458130668,24.442904813542942,161.23567569212858,3.6559591998429659,3.3884913334414586,-70,270,-5.6522482091619617,-5.9197160755634695,1.4611860290581005
