mhz,zreal,zimag,zmag,zphase,vswr,s11,s11_real,s11_imag,s11_ang,gain_max,gain_net,gain_max_theta,gain_max_phi,gain_viewer,gain_viewer_net,fb_ratio
10,13.878416997147998,4.5421380604740351,14.602790024756683,18.122272970662621,3.634905466717981,-4.9055168441479715,-4.9055168441479715,25.584434441969957,168.76568500837138,4.0760440917182663,2.3807575966179675,25,180,3.8296966031371635,2.1344101080368647,7.7146197324262892e-15
10.5,15.767354351772694,10.699094269342048,19.054660360096506,34.159241954335528,3.3314896321408098,-5.3800758133985385,-5.3800758133985376,23.255623098544259,153.4038663791595,4.0344102540519469,2.5486492436377564,25,0,3.7787834854458833,2.2930224750316928,1.9286549331065739e-15
11,17.867518678095017,16.644700856219146,24.419137787913328,42.970776584228908,3.1481932912424617,-5.7157125765642602,-5.7157125765642602,21.047138207335735,138.83577161275642,3.9895843432546672,2.6336184518773944,25,270,3.7259284254454164,2.3699625340681436,2.7001169063491955e-14
11.5,20.200244508830593,22.400775775717893,30.163630974578144,47.956952598251945,3.0479539884281408,-5.918307446371025,-5.9183074463710241,19.005710280385696,125.36965481160604,3.9421291097952169,2.6581017416845905,25,90,3.6717493349153481,2.3877219668047216,1.4464911998299284e-14
12,22.788471478771697,27.980470589778655,36.08630164985405,50.839180638270456,3.0040894515064629,-6.0117333786159985,-6.0117333786160003,17.156978116386181,113.17464027016429,3.8925363235825299,2.6401894187387898,25,180,3.616793777220221,2.3644468723764813,5.7859647993197193e-15
12.5,25.656565059347329,33.388617997407842,42.107708824173145,52.460514256584695,2.9973380750862106,-6.02638598578383,-6.0263859857838291,15.505806606790433,102.28281885760634,3.8412445673562399,2.5937841803215198,25,180,3.5615560318300528,2.3140956447953327,1.2536257065192713e-14
13,28.829993897083092,38.621732845507829,48.195505974059721,53.259736846650469,3.0138898784375003,-5.9905946838578306,-5.9905946838578306,14.04198547048701,92.626839267425581,3.7886525697835798,2.5292172153048371,25,0,3.5064897599621938,2.2470544054834507,1.7357894397959133e-14
13.5,32.334812519005368,43.66773437793649,54.336094139542666,53.481022251143521,3.043950725539931,-5.9267086667358218,-5.9267086667358218,12.74707781087603,84.085083978970303,3.7351293741680975,2.4539883630809802,25,270,3.4520175682193575,2.1708765571322401,1.3500584531745998e-14
14,36.196886706576656,48.505450362551848,60.522667837123038,53.268091802601575,3.0806552843571788,-5.8505955052489202,-5.8505955052489202,11.599771899492787,76.516971872059173,3.6810221279467976,2.3734549086497987,25,270,3.3985381911123635,2.0909709718153646,3.182280639625836e-14
14.5,40.440787265433656,53.103978391742274,66.749455396120581,52.709288511812808,3.1192489770084642,-5.7727212066221263,-5.772721206622129,10.579128720002782,69.784380392405978,3.6266622866429237,2.2914017627652941,25,180,3.3464321402704655,2.0111716163928364,6.7502922658730046e-15
15,45.088269513829786,57.421992705933299,73.008474125076802,51.860675450048483,3.1564842779094389,-5.6995969176309575,-5.6995969176309575,9.6661602531986723,63.762056582954031,3.5723706048272224,2.2104839810300092,25,270,3.2960661306752264,1.9341795068780132,5.9788302926303389e-14
15.5,50.156254631586002,61.407119663475505,79.28735223245188,50.758655122264052,3.1901828165046884,-5.6350520845448191,-5.6350520845448173,8.844372156904539,58.341196828661722,3.51846122812649,2.1325574252234025,25,180,3.2477966082617078,1.8618928053586203,3.8573098662131313e-14
16,55.654239554870877,64.995562186993325,85.567619368744104,49.427298699873937,3.2189216016386681,-5.5811899406107504,-5.5811899406107486,8.0997621350852995,53.429436098462595,3.465245330116995,2.0589201339842687,25,0,3.2019728044401914,1.7956476083074651,5.882397545975011e-14
16.5,61.581094704283437,68.112191790188874,91.823210004014769,47.882866724689492,3.2418087523789776,-5.5390504697495739,-5.5390504697495713,7.4205782616061597,48.949253747184464,3.4130343012029924,1.9904864415146584,25,180,3.1589393150037992,1.7363914553154651,7.4253214924602462e-14
17,67.921274303044441,70.671410658448011,98.019119499230371,46.13678820254885,3.2583235771860197,-5.509049808877621,-5.509049808877621,6.7969994198049957,44.83586556062906,3.3621427976629987,1.9279116389769941,25,90,3.1190384919434755,1.6848073332574709,3.3751461329364918e-14
17.5,74.640569993168654,72.57912650088123,104.11025066023052,44.197768393237595,3.2682020841916506,-5.4912645674179759,-5.491264567417975,6.2208165221348146,41.035120946321726,3.3128917432992906,1.8716812119488939,25,0,3.0826127267331396,1.6414021953827429,0
18,81.681697508229533,73.736219540329174,110.04058242269319,42.073398115647841,3.2713550005851246,-5.4856130112585095,-5.4856130112585069,5.6851465765671936,37.501616795304983,3.2656115015550977,1.8221748092786327,25,360,3.0500067788357494,1.6065700865592845,6.7502922658729571e-14
18.5,88.960205974114757,74.043812252581759,115.74283727234484,39.77146184646125,3.2678081261700749,-5.4919715769911814,-5.4919715769911814,5.184189784317037,34.197095196617489,3.2206451150911093,1.7797127923916101,25,180,3.0215701021582371,1.5806377794587378,2.314385919727883e-14
19,96.36143317931942,73.410552012795918,121.13890766882396,37.301057856497081,3.2576595250054847,-5.5102496380235806,-5.5102496380235797,4.7130282009511602,31.089115321325451,3.1783520246020869,1.7445902778014486,25,90,2.9976594159879051,1.5638976691872668,2.4108186663832109e-14
19.5,103.73942452700851,71.761789784222785,126.14128061118564,34.673563395650952,3.2410481214288307,-5.5404403624746701,-5.5404403624746701,4.2674618714406618,28.149972500440995,3.1391121769396699,1.7171028778780395,25,0,2.9786414619830359,1.5566321629214055,4.7252045861110812e-14
20,110.91882556380283,69.050130458997828,130.65567871645663,31.903440804106125,3.218130706544454,-5.5826579806263075,-5.5826579806263075,3.8438764892401149,25.355825248573751,3.1033306605363236,1.697566706136491,25,180,2.9648959758415439,1.5591320214417113,8.3896489590135164e-14
20.5,117.70063000167151,65.266286811689753,134.58501587092124,29.008847742719926,3.189065031766289,-5.6371687777945887,-5.6371687777945869,3.4391372846727193,22.685995307111089,3.0714430334612182,1.6863346523675442,25,270,2.9568189524834629,1.571710571389789,5.7859647993197193e-15
21,123.87223384124773,60.448641508733502,137.83456960092465,26.01199911987122,3.1539973065212163,-5.7044210940727558,-5.7044210940727558,3.0505046833057081,20.122411291405996,3.0439214146862055,1.6838102970731739,25,180,2.954826159123356,1.5947150415103244,6.6538595192176305e-14
21.5,129.22149168411914,54.68959513926513,140.31801641117082,22.939231992337874,3.1130529322950964,-5.7850784459899005,-5.7850784459899005,2.6755683181334162,17.649173407395981,3.0212814023395866,1.6904603950275026,25,90,2.9593568170314137,1.6285358097193297,1.0704034878741356e-13
22,133.5535022305543,48.136863526079949,141.96371222314215,19.820750240668005,3.0663297036439414,-5.8800594034299571,-5.8800594034299545,2.3121972364217602,15.252224995016748,3.0045199302281422,1.7072565654886631,20,350,2.9708774127482158,1.6736140480087367,2.6133274343593297e-13
22.5,136.70792452791045,40.98851316805662,142.72040793263173,16.690067882230959,3.0138929222275062,-5.9905881426593988,-5.9905881426593988,1.958505279279432,12.919124157299718,3.0265235200810219,1.7670859649986339,20,350,2.9898853789150404,1.7304478238326524,2.5843976103627323e-13
23,138.57408028847055,33.481658560058428,142.56155578460772,13.583226334133281,2.9557721927241944,-6.1182601246423989,-6.1182601246423971,1.6128322520956917,10.638919552663971,3.0567270414490109,1.8394110804938253,20,350,3.016912380145373,1.7995964191901874,2.8736958503287009e-13
23.5,139.10121599577505,25.876106551299252,141.48753012812634,10.537913940840815,2.8919598640077107,-6.2651286777923145,-6.2651286777923136,1.2737435054996236,8.4021476307473275,3.0957003227062252,1.9248557903758348,20,350,3.0525266932723016,1.8816821609419112,3.9248127888717008e-13
24,138.30215235883296,18.435396998920371,139.52544287546141,7.5926529239054545,2.8224113810917029,-6.4338201311941496,-6.4338201311941488,0.94005332713377687,6.2009869343789488,3.1440480801558461,2.0241026304018521,20,350,3.0973339438586422,1.9773884941046482,3.9730291621993607e-13
24.5,136.24990940276967,11.408258450604666,136.72668420297018,4.7862338904248993,2.7470481592788887,-6.6276879598486698,-6.6276879598486662,0.61088244161600469,4.0296373935000007,3.2024071603967421,2.1378843071606686,20,350,3.1519750492916385,2.087452196055565,4.5419823674657449e-13
25,133.06834395010495,5.0132627467643118,133.16274616044657,2.1575605887317972,2.6657641083946384,-6.8510202889261613,-6.8510202889261613,0.28576699606843536,1.8850392395291351,3.2714391120606159,2.2669658947100593,20,350,3.2171196528601085,2.2126464355095519,5.1109355727321215e-13
25.5,128.91890254967282,-0.57143175343372232,128.92016897623455,-0.25396130968180547,2.5784376770783068,-7.1093203785142309,-7.1093203785142309,-0.035150297066966874,-0.23186613627163086,3.3518156385195241,2.4121127812135859,20,350,3.293452628605531,2.3537497712995927,5.197725044721906e-13
26,123.98602287724526,-5.2125897199238045,124.09554770621322,-2.4073972990099501,2.4849524633570237,-7.4096861464402437,-7.4096861464402455,-0.35079376046250194,-2.3139831140452696,3.4441929440871433,2.5740365399503657,20,350,3.3816496966491236,2.5114932925123465,5.9016840953057154e-13
26.5,118.46349290627201,-8.8211536310949423,118.7914639312848,-4.2585595282254323,2.3852312574516321,-7.7613211903532999,-7.7613211903532964,-0.65859927564374254,-4.3443976904058204,3.5491699853139331,2.7533079727835337,20,350,3.4823371752735337,2.6864751627431342,6.2874150819269765e-13
27,112.54341195215925,-11.347504653447906,113.11403730613385,-5.7575491369437328,2.2792912507692713,-8.176211212238675,-8.1762112122386714,-0.95355932421571932,-6.2900781689116121,3.6672230723155339,2.9502214136316187,20,350,3.5960283180318959,2.8790266593479812,6.8756548365243934e-13
27.5,106.40861729278387,-12.774313089426334,107.17265000488152,-6.8455755332356372,2.1673337163977346,-8.6699758869023658,-8.669975886902364,-1.2265530066835746,-8.0908592621636366,3.7986058709862891,3.1645871785008142,20,350,3.7230252595013864,3.0890065670159115,7.0878068791660815e-13
28,100.22871098328301,-13.108484166666166,101.08227768762541,-7.4511779654957548,2.0498903553166934,-9.26280560863853,-9.2628056086385282,-1.4613623876032569,-9.6397606501221862,3.9432015402049214,3.3954232428963751,20,350,3.8632732207042029,3.3154949233956565,8.4282220576749107e-13
28.5,94.159371578855399,-12.373423029984137,94.968883607231604,-7.4863063141018547,1.9280677085219311,-9.980029063082787,-9.980029063082787,-1.6292275750906395,-10.747069995561267,4.1003093073607726,3.6405097292416251,20,350,4.0161491030142846,3.5563495248951371,9.0261050869378286e-13
29,88.344395000955245,-10.602441027278193,88.978333788747236,-6.8434854017136102,1.8039705050558366,-10.850666494509614,-10.850666494509609,-1.6787821115867387,-11.07395255049933,4.2683461552076176,3.8957715743488821,20,350,4.1801648814671424,3.8075903006084069,9.4407658975556543e-13
29.5,82.919898837952545,-7.8338576787568215,83.289128638900408,-5.3969999511966531,1.6814760407966516,-11.898466585260902,-11.898466585260902,-1.5178893439326167,-10.012636217412942,4.4444469279283787,4.1544752587105505,20,350,4.352568619851783,4.0625969506339548,9.325046601569285e-13
30,78.020195220780707,-4.1082191506382637,78.128281223116659,-3.0141738898496357,1.5677217637236698,-13.108248376722342,-13.10824837672234,-0.98584627452494011,-6.5030564662480659,4.6241784088133748,4.406508953509185,20,90,4.528843290307857,4.3111738350036672,1.3500584531745998e-14
