mhz,zreal,zimag,zmag,zphase,vswr,s11,s11_real,s11_imag,s11_ang,gain_max,gain_net,gain_max_theta,gain_max_phi,gain_viewer,gain_viewer_net,fb_ratio
10,21.794659931959981,-10.078166456755394,24.012010342323514,-24.816504955155661,2.4079475039545275,-7.6781286811182268,-7.678128681118225,-23.095374346322078,-152.34679824259956,-1.8014816725911933,-2.6142695390738768,25,150,-2.0761670764569491,-2.8889549429396326,7.2613858231456445e-13
10.5,24.416945472178107,-4.4074879518955932,24.811553281433707,-10.232241202393796,2.0685872358306527,-9.1625698386727432,-9.1625698386727414,-25.2918170928309,-166.83545796017148,-1.6520906173226062,-2.2135217826533937,25,90,-1.9276786888280522,-2.4891098541588397,9.6529179401973302e-13
11,27.423109997508345,0.90807039963355796,27.438140494321637,1.8965608780546888,1.8241396511491592,-10.697707177715277,-10.697707177715277,26.836488780937685,177.02476177877517,-1.5192956445340489,-1.9058382622046111,25,30,-1.7947364720244472,-2.1812790896950096,3.2594268369499883e-13
11.5,30.853219652274095,5.8357537758804821,31.400273646007861,10.710717266072351,1.6557673921357154,-12.14880433170293,-12.14880433170293,24.092005823847945,158.92099844182849,-1.4008796335596636,-1.674087150164471,25,90,-1.675169007079955,-1.9483765236847623,5.3038010660427561e-13
12,34.740501147914195,10.31622260800623,36.239851943767185,16.538833572342718,1.5502728432242991,-13.320171320727347,-13.320171320727345,21.071771960448693,138.99826620406213,-1.2948791277133291,-1.5019307466838456,25,150,-1.567054524046902,-1.7741061430174185,3.674087647567868e-13
12.5,39.103762532725554,14.261984695832881,41.623412302212344,20.038002228899359,1.4965574323468225,-14.027441491962742,-14.027441491962742,17.931904691351008,118.28638172967413,-1.1995478707496265,-1.3748453020108578,25,270,-1.4686852743343546,-1.6439827055955858,5.7859647993197193e-15
13,43.936830201567652,17.557734254720863,47.315104145724817,21.78229831752892,1.4825436759806816,-14.227205391417408,-14.227205391417407,14.92691536599424,98.464208873480658,-1.1133271288335413,-1.2805902070497339,25,90,-1.378538581885864,-1.5458016601020566,3.5680116262471476e-14
13.5,49.195197047672579,20.064713978985971,53.129654239584958,22.188543470313526,1.4950697911653823,-14.048325425565862,-14.04832542556586,12.258422509589861,80.861708186099648,-1.0348213177556478,-1.2092607017419157,25,270,-1.2952531056490515,-1.4696924896353194,2.1890233490759066e-13
14,54.781348658122091,21.631686511610269,58.89758927273099,21.547735150506345,1.5222667578095974,-13.677972643984988,-13.677972643984988,9.9859385387698225,65.871448586034106,-0.96277778992367768,-1.1530905629088055,25,150,-1.2176091773367528,-1.4079219503218805,7.8110524790815565e-14
14.5,60.532226401667799,22.114810476288724,64.445444179902566,20.069242983854355,1.5552596050889067,-13.258778991577014,-13.258778991577012,8.0679624355038744,53.219671911761793,-0.89606993024059811,-1.1061416843103038,25,30,-1.1445123711689034,-1.354584125238609,4.6577016634521273e-13
15,66.214540959108078,21.40685192983765,69.588926877567204,17.915777900276833,1.5881719129149909,-12.869776763433812,-12.869776763433812,6.4309228018602198,42.42107029387698,-0.83368292540166955,-1.0639702981173165,25,270,-1.0749796766971937,-1.3052670494128407,7.2420992738145819e-13
15.5,71.53482095635259,19.472185855533645,74.137686983408557,15.227299874485674,1.6173826352134921,-12.546256132930409,-12.546256132930406,5.005436441585096,33.017963001918503,-0.77470142246340024,-1.023318084545336,25,150,-1.0081274970058376,-1.2567441590877735,2.6036841596937974e-13
16,76.169151750104021,16.37868262621593,77.910210645978111,12.135544604414511,1.6407940346703171,-12.300321403239078,-12.300321403239076,3.7361200717207321,24.645018618942949,-0.7182998756378669,-0.98184988387197047,25,270,-0.94316227773175854,-1.2067122859658621,5.7859647993197193e-15
16.5,79.81103235221218,12.313695380749355,80.755358825626843,8.7707585466313329,1.657309308378685,-12.133446526390168,-12.133446526390166,2.5808992073657593,17.0246961548667,-0.66373266648125651,-0.93793923382293132,25,30,-0.87937085980406393,-1.1535774271457386,1.7454327144614146e-13
17,82.226492907246481,7.5730195219809566,82.574492190420159,5.2620684133493736,1.6664934425268261,-12.042892782978186,-12.042892782978186,1.5078296644031497,9.9462783422523273,-0.61032686344386566,-0.89050125914626799,25,90,-0.81611342976738677,-1.0962878254697892,7.1360232524942662e-14
17.5,83.29864400709738,2.5208042501755124,83.336777880410295,1.7333700945014057,1.6683559931027641,-12.024718458007316,-12.02471845800731,0.49205643939494281,3.2458111296390881,-0.55747532642671427,-0.83886354739624791,25,90,-0.75281678332445812,-1.0342050042939919,9.4986255455488399e-13
18,83.045475188209025,-2.4688167759051645,83.082164184068006,-1.7028156224682793,1.6632102573106065,-12.075084407426006,-12.075084407426006,-0.48655821204590999,-3.2095425106474913,-0.50463071910406454,-0.78266835540013902,25,210,-0.68896847555474472,-0.96700611185081919,3.4619356049261622e-13
18.5,81.605477095564112,-7.0692244349994668,81.911097087678129,-4.9509924615329837,1.6515806210225958,-12.190733541357492,-12.190733541357496,-1.4452042799781297,-9.533174979527093,-0.45130015486177893,-0.72179918425384071,25,30,-0.62411159602614674,-0.89461062541820846,9.1611109322552614e-13
19,79.199104462288204,-11.040522209986994,79.964937805876247,-7.9360095433559774,1.6341418025305954,-12.369055353430738,-12.369055353430735,-2.3994723423094393,-15.827928282995241,-0.39704058816838689,-0.65632628642532365,25,330,-0.55784029451578143,-0.81712599277271825,1.0424379913439782e-12
19.5,76.081821599343698,-14.242974962416328,77.403526493657765,-10.603382611332119,1.6116807952989043,-12.607905003843765,-12.607905003843761,-3.3644420812776303,-22.193274344433394,-0.34145453598702252,-0.58646622419607364,25,150,-0.48979565680443476,-0.73480734501348599,2.4590350397108126e-13
20,72.503303603959495,-16.628151990728227,74.385646949627898,-12.917027486171236,1.5850766194111643,-12.905213527354498,-12.905213527354496,-4.3556313782733085,-28.731575633049314,-0.28418647945625841,-0.51255236095016032,25,270,-0.41966229899758506,-0.64802818049148703,2.5815046279623823e-12
20.5,68.680573319598196,-18.217238823848675,71.055534210037735,-14.855389514031524,1.555295813084868,-13.258335688807087,-13.258335688807087,-5.3898752007420683,-35.553882671358693,-0.22491961691960211,-0.43501334214922321,25,90,-0.34716536846051271,-0.55725909369013382,1.7589332989928397e-12
21,64.78575563769563,-19.076088918442856,67.535851974869971,-16.4070025347235,1.5234033797371254,-13.663003154917357,-13.663003154917357,-6.4861377754215708,-42.785291471286094,-0.16337311405893132,-0.35435766116306611,25,90,-0.27206811905440076,-0.46305266615853558,9.4388372426133169e-12
21.5,60.944928967514514,-19.29335020242473,63.925876833163521,-17.566236821184102,1.4905901776061676,-14.111668446029515,-14.111668446029517,-7.6661406575536848,-50.569086542721919,-0.099299798887903801,-0.27116275472746876,25,90,-0.19417002944192396,-0.36603298528148892,1.3789882771709817e-12
22,57.243464981304939,-18.964326660419225,60.303067656206117,-18.329642872695203,1.4582174091989462,-14.590974091699987,-14.590974091699989,-8.9544545221523517,-59.067346387313393,-0.032484607240802585,-0.1860677063951523,25,150,-0.11330580034148711,-0.26688889949583683,8.1003507190475352e-14
22.5,53.734048153502606,-18.180675898850197,56.726403967658385,-18.693019826659857,1.4278755383732054,-15.078179217631869,-15.078179217631867,-10.37727138155944,-68.45284452931601,0.037256929927578467,-0.099768010834741808,25,150,-0.02934453494780493,-0.1663694757101252,6.9624443085141749e-13
23,50.444904914631884,-17.024802736097417,53.240326257915456,-18.64917914507506,1.4014435459467467,-15.536958028560228,-15.536958028560228,-11.958483154288206,-78.883182107156344,0.11007868400060079,-0.013012954842959459,25,270,0.057809369231091833,-0.065282269612468413,7.4156782177941449e-13
23.5,47.387016475573162,-15.567523994190863,49.878624016365471,-18.18632212251492,1.3811117941805129,-15.914547943905939,-15.914547943905934,-13.711401622574309,-90.446169232595039,0.18610390476600927,0.073396434229189553,25,30,0.14821509755471943,0.035507627017899709,4.5516256421312762e-13
24,44.559874724100766,-13.867757663123243,46.66794550899651,-17.28699125714131,1.3693011039533671,-16.144793017910864,-16.144793017910864,-15.626064574081218,-103.07609096505031,0.26542379098209085,0.15860815144836773,25,90,0.24189263194418514,0.13507699241046203,3.760877119557657e-13
24.5,41.955804433576226,-11.973318170825808,43.630836270788144,-15.927649700391925,1.3684098238386642,-16.162513028823362,-16.162513028823358,-17.657505470890925,-116.47632911695187,0.34809472257071117,0.2417193930199919,25,270,0.33881833116400895,0.23244300161328968,3.40407595693297e-13
25,39.563075485147699,-9.9221817594794643,40.788314904046253,-14.079051996530792,1.380414647920531,-15.927907657611833,-15.927907657611833,-19.726853160698642,-130.12661641108838,0.43894762197331572,0.32659084496753821,20,270,0.43891800124966585,0.32656122424388834,7.9171285004017652e-13
25.5,37.367999359830861,-7.7440117028691615,38.161984924928817,-11.708043485200479,1.4065310860909397,-15.445954314660009,-15.445954314660009,-21.742772577512302,-143.42446835586787,0.54209746611165588,0.41636120997896614,20,270,0.54206410973981267,0.41632785360712293,1.2439824318537224e-13
26,35.356447817971059,-5.4614005272648072,35.775764115167668,-8.7809022399651369,1.4471632242438726,-14.763937170787845,-14.763937170787845,-23.631863557335251,-155.88570661290581,0.64809449634159977,0.50061083557498476,20,30,0.64805702945291888,0.50057336868630387,6.5574267725618573e-13
26.5,33.514743175459863,-3.091183790745887,33.65699670715145,-5.2696838630184404,1.5021775600590466,-13.949216454109212,-13.949216454109211,-25.356164781696524,-167.25992236702575,0.75665889757915872,0.57810901270646609,20,90,0.75661691870391046,0.57806703383121771,5.8052513486503996e-13
27,31.830271241783656,-0.64546829926291172,31.836815114751552,-1.1617099035825247,1.5712718112974229,-13.06610387678381,-13.06610387678381,-26.91058402359165,-177.51352514818714,0.8674122721482751,0.64756560444908928,20,90,0.86736535277615867,0.64751868507697286,3.3462163089397773e-13
27.5,30.29185654834906,1.8674948557704492,30.349367541714717,3.527823485515579,1.654241865995244,-12.164043264761206,-12.164043264761204,26.264936663095465,173.25456373494453,0.97985669203089987,0.70763678155103993,20,90,0.97980437648604179,0.70758446600618186,5.197725044721906e-13
28,28.889996254595012,4.4425950610291913,29.22958320720285,8.7422491943811522,1.7510948252458416,-11.276215802430865,-11.276215802430865,24.997255228583313,164.89240407286192,1.0933494026946302,0.75693476241665725,20,210,1.093291208403304,0.756876568125331,2.7097601810146525e-13
28.5,27.617012287761067,7.0772799621762967,28.50942404478505,14.373597441662097,1.8620488776824309,-10.422903110713957,-10.422903110713957,23.837719416668548,157.2436184007224,1.207073016782769,0.79404277155976899,20,330,1.2070084350339889,0.79397818981098889,3.7801636688887206e-13
29,26.467161724050417,9.7710807578478942,28.213200259868159,20.263011802944146,1.9874695712242705,-9.6155953744471248,-9.6155953744471248,22.765285088423113,150.16939073142012,1.3200014738198493,0.81753645933757335,20,30,1.3199299711310428,0.81746495664876684,4.2237543035031916e-13
29.5,25.436739815388723,12.525215126078399,28.35328457851621,26.21593304768453,2.1277697872565868,-8.860286490334202,-8.860286490334202,21.762568058595207,143.55504767090429,1.4308615721833873,0.82601225974163384,20,150,1.4307825923872139,0.82593327994546051,1.3982748265022438e-13
30,24.524183518936645,15.342253968965483,28.927847035663074,32.029971077413904,2.2832830135334707,-8.1597174827564416,-8.1597174827564416,20.815765425821475,137.30953947918655,1.5380948836619939,0.81812585827380802,20,330,1.5380078508390229,0.81803882545083706,4.6384151141210627e-13
