mhz,zreal,zimag,zmag,zphase,vswr,s11,s11_real,s11_imag,s11_ang,gain_max,gain_net,gain_max_theta,gain_max_phi,gain_viewer,gain_viewer_net,fb_ratio
3,184.24888983129932,864.02774452563597,883.45435462966839,77.962310571586968,11.770886872799107,-1.4793918669154815,-1.4793918669154806,8.0918715812304871,53.377386688129789,5.2884160077635345,-0.10731337758154158,85,180,0.079793901401333828,-5.3159354839437425,0.19620933366389737
3.25,2668.3835297545129,413.40021460451192,2700.2167319124978,8.8065553655475686,6.0761289486417773,-2.8852618511227375,-2.8852618511227366,0.45547485006560701,3.004503587904547,7.0075056696445781,3.8684606329381515,85,160,-1.690546441409625,-4.8295914781160514,0.1538788865038356
3.5,253.21236136961642,-317.96859682740012,406.47328143281806,-51.468149918702878,2.879928914751666,-6.2936468224954822,-6.2936468224954822,-14.768934489201515,-97.422100596644555,7.3832125886583082,6.2211548072411755,85,130,-3.2253868769492784,-4.3874446583664106,0.092529119083071112
3.75,122.46099364762414,89.733934844034067,151.81855626950477,36.232292739920027,3.8319275384116911,-4.6407655219430879,-4.6407655219430861,23.614361263660228,155.77025412604382,6.5268482209122496,4.6992127580931795,85,120,-2.7459541044587326,-4.5735895672778026,0.068367692230449473
4,115.1973161599179,319.5024272873892,339.63542614542069,70.173117703616924,5.9638752548240905,-2.9406024807270508,-2.9406024807270503,16.199749949800971,106.86036087464046,5.2345381754104592,2.153403938585055,85,120,-1.7764054020318447,-4.8575396388572489,0.070971169845624502
4.25,140.94525628619837,526.67551362924564,545.20882414558537,75.017969307253836,7.7503553427244043,-2.2539810933908226,-2.2539810933908222,11.930069642527277,78.695754638837542,3.9914472561253298,0.064749524402434311,85,230,-1.1358439757979908,-5.0625417075208858,0.10310397228813441
4.5,200.88030449345317,767.79652073078319,793.63996495872004,75.338221221696372,9.0980505489280272,-1.9171411401143996,-1.9171411401143996,8.8328179703940641,58.26498055717925,2.9661204490108091,-1.5085469904419853,65,260,-0.76416433417020491,-5.2388317736229997,0.13786705435347138
4.75,331.54955446376852,1103.5990688460024,1152.3263477951405,73.278379982832675,10.158826919322914,-1.7155737902093633,-1.7155737902093624,6.2809250530878513,41.431622085486836,2.2613555580659983,-2.6019797464319248,55,100,-0.54374906894737507,-5.407084373445298,0.19822193221475221
5,676.6430751207796,1652.8736825774295,1786.0115513808912,67.737096074986752,11.050576068564165,-1.5763370721761485,-1.5763370721761472,4.0130326390835283,26.471650324420306,1.8754021347197898,-3.2903049378231093,55,120,-0.3975637396050074,-5.5632708121479064,0.63821592297022767
5.25,2017.4156007138731,2557.1636783416534,3257.1539392287759,51.729136185444609,11.824563243324421,-1.472644028260361,-1.4726440282603614,1.8904879263751362,12.470453103757926,2.0815388180951606,-3.3308618560541712,55,210,-0.27161392482363733,-5.6840145989729693,0.64150973170963388
5.5,5513.0971913792382,-711.6037630355537,5558.8326613741492,-7.3547957694041441,12.456785261063009,-1.3975709823211822,-1.397570982321181,-0.18118417725214261,-1.1951670010916839,2.7161564544486079,-2.8880102966511445,55,160,-0.11643950708317684,-5.7206062581829293,0.55527438880969104
5.75,1512.2827670564557,-2506.8747705019591,2927.6988032438003,-58.899342714935109,12.814792537401994,-1.3583653460643852,-1.358365346064387,-2.2872620536425221,-15.087742046914379,3.5505752162996673,-2.1585964202535601,55,190,0.12412892333034241,-5.5850427132228848,0.46351442318817543
6,493.79318881989991,-1539.5463427359643,1616.7976542401987,-72.216906660780765,12.595886916853113,-1.3820714448110527,-1.3820714448110527,-4.5297773648587283,-29.880315769721417,4.4836024661776639,-1.1616609647856793,55,190,0.50965414825776301,-5.1356092827055804,0.4706052066703702
6.25,244.02749285091522,-995.11132334624938,1024.595511955341,-76.221466775998778,11.31558694268802,-1.5392234146410622,-1.5392234146410622,-7.0625489001738853,-46.587541567371467,5.4073484882520004,0.1556169700137966,55,160,1.0636933157872819,-4.1880382024509224,0.61139084482932926
6.5,165.8530902852886,-650.75534926463376,671.55772064187863,-75.701849275064362,8.64020065885164,-2.0196261781224645,-2.0196261781224631,-10.158488788582428,-67.009662572121641,6.1001627025651315,1.8042794267714841,50,210,1.6943089638244642,-2.6015743119691832,0.51914899932275216
6.75,155.24074553950027,-387.09562099119802,417.06439414821915,-68.147250803270765,5.1962104969754472,-3.3853779460841835,-3.3853779460841835,-14.354159814616912,-94.686072476141575,6.3907855421282207,3.7257295515778006,50,140,2.1838424832577279,-0.48121350729269219,0.82683849851154778
7,202.70060133547025,-141.90692647687729,247.43708203071563,-34.995151279128116,2.4895614027724617,-7.3942486840519548,-7.3942486840519548,-20.903092481886301,-137.88558545237285,6.1848760335628805,5.3112874764529998,45,220,2.368803911583711,1.4952153544738302,0.50621697614513872
7.25,369.31456025616723,129.23019755201432,391.27188549209461,19.285913833288468,1.4500123271663448,-14.718877179274873,-14.718877179274871,17.132834278316686,113.01537736444041,5.6514747313392188,5.5024261981273721,40,130,2.2825285327898559,2.1334799995780087,0.62685855124533374
7.5,924.55569331334971,332.12606882030195,982.40060852391412,19.7596969140269,2.3875863588175821,-7.7526070735334605,-7.7526070735334587,3.2446724579404251,21.403223559001933,5.0532749122097842,4.2556582073794544,40,130,2.05438089462411,1.2567641897937807,0.47795882214278246
7.75,1504.9959653201026,-660.01460596661582,1643.360014031939,-23.679809790992525,4.0390779027925587,-4.3921847937886023,-4.3921847937886005,-2.027700038266282,-13.375561876331265,4.4441355277160808,2.4805362873826566,40,230,1.7856173614091453,-0.17798187892427886,0.30373996243331886
8,604.03695564328495,-1057.1443686922976,1217.5446028957806,-60.256979412486729,6.0329627827299595,-2.9062920055081447,-2.906292005508146,-5.5523171343374091,-36.625417954246551,3.8851428099195937,0.76828280076947753,40,230,1.5314464817525644,-1.5854135273975518,0.091999163965175323
8.25,240.15104059335729,-801.35807129007276,836.56875432914512,-73.317574493568472,8.2282805034433757,-2.1217157855830382,-2.1217157855830377,-8.4000501971257506,-55.41026239364767,3.7488080737330645,-0.37991686641698941,40,40,1.3282361209186373,-2.8004888192314166,0.58942263873920664
8.5,121.37968254386239,-600.21668471674184,612.3667985340204,-78.567461035450094,10.477313532521292,-1.663099946065808,-1.6630999460658089,-10.959105609903389,-72.290867696507945,3.8886334630026065,-1.0850721341059453,35,40,1.2209970861477797,-3.7527085109607721,1.1752744076547226
8.75,73.486039448737841,-455.30413767604858,461.19633105521518,-80.831534266933971,12.475578362161901,-1.3954566185648809,-1.3954566185648813,-13.427557317584263,-88.573812871698209,4.3422128269818892,-1.2675286524941072,35,320,1.2770211007425156,-4.3327203787334803,1.7000584538558079
9,52.098545930599379,-341.77441039583732,345.72244082429046,-81.332811343062232,13.662485861311753,-1.2737726580030668,-1.2737726580030642,-15.932356422467651,-105.0965207589026,5.2458234884154944,-0.70243146991984862,40,90,1.5606437982343544,-4.3876111601009882,6.0023598827728012e-11
9.25,43.556139362277904,-245.00530675052866,248.84681555540715,-79.919483529694347,13.416341244045187,-1.297228275830558,-1.2972282758305571,-18.573429834477025,-122.518151264206,6.0681970012881781,0.18803679884920932,40,90,2.0554117620602002,-3.8247484403787686,5.5650373766967097e-11
9.5,43.300750952115379,-156.0765628297774,161.97175215998183,-74.494242863669257,11.653003878302364,-1.494431120541539,-1.4944311205415384,-21.443148352436928,-141.44802100837455,6.4541056928692342,1.0952116929611293,40,90,2.6290960607196299,-2.729797939188475,5.2622385522027515e-11
9.75,50.600754790895081,-68.390624512556542,85.07475481378593,-53.503056209046349,9.1011285821839127,-1.9164874816550794,-1.9164874816550801,-24.635155714383362,-162.50384345434361,6.4808727427992876,2.0050271682204208,35,90,3.1382452722732723,-1.3376003023055945,5.5764164408018925e-11
10,67.642993488282443,24.340054132684994,71.888892071291906,19.790309949193365,6.672485182367784,-2.6232537653650438,-2.6232537653650425,26.327228430014138,173.66546641634858,6.5116938678332943,3.0764487940079888,30,320,3.5316306129410151,0.096385539115709573,2.5456903437119744
10.25,101.12581877729781,129.66065755962188,164.43332187294766,52.048377619720135,4.8373392560655999,-3.6436947593580795,-3.6436947593580795,22.189799709856842,146.37324724635192,6.5042993696901918,4.0466660605810656,25,320,3.8327452387848022,1.375111929675676,2.2040588669976948
10.5,168.38545579546553,257.4147900472114,307.59719741651844,56.809673292415482,3.6469046387985076,-4.8885093031083855,-4.8885093031083855,17.429167479975998,114.97011573796949,6.4813148387530548,4.7778836206317923,25,320,4.0828957030848878,2.3794644849636253,1.9807309883698723
10.75,317.08062695120879,414.20606277605935,521.63855918462968,52.565430573675634,2.9920013008868773,-6.0380211286860241,-6.0380211286860233,12.040391084391482,79.423481247356236,6.4678932083489133,5.2242974190071978,25,40,4.313051161034247,3.0694553716925315,1.7676793451528929
11,674.37060991189935,536.65455414524752,861.8432746142314,38.512276042668091,2.7514757184305796,-6.615960379005883,-6.615960379005883,6.336131708001373,41.795788389597789,6.4848646618981682,5.4170786244980693,25,40,4.5394383644360579,3.4716523270359589,1.5708703165700082
11.25,1242.3000091156985,166.39387621792312,1253.3938864904719,7.6288025883011246,2.8174996877307419,-6.4460933057916971,-6.4460933057916954,0.94672954811160315,6.2450260945622897,6.5376840096591335,5.4213424847142857,25,40,4.7662639385269419,3.649922413582094,1.3929289905124627
11.5,1005.3228190872289,-575.6428811004854,1158.4639386442552,-29.795239240251966,3.0905705384769702,-5.8303812066553808,-5.8303812066553817,-3.7063118035554425,-24.448390751039963,6.6224278623923203,5.3077366563039199,25,40,4.9885965890796076,3.6739053829912067,1.236067967694894
11.75,519.89884079451338,-640.42147550872812,824.88451976761883,-50.930055232667442,3.4871949770404091,-5.1253021777381411,-5.1253021777381393,-7.630567996462247,-50.334434315787455,6.7290966229922642,5.1349600237277322,25,40,5.1942370174284598,3.6001004181639282,1.1035848125000405
12,291.08656855525385,-511.86012708630938,588.83968963894176,-60.373811050472632,3.9391004915875287,-4.5086685411265446,-4.5086685411265446,-11.008275820390514,-72.615215075524162,6.8780774798092619,4.9796907474956544,30,40,5.3650733560810648,3.466686623767457,1.1052369985225361
12.25,187.91076472349562,-390.14068623635802,433.03603840320875,-64.282267661174373,4.3842690641899766,-4.0332374078526962,-4.0332374078526945,-14.014097030971788,-92.442875396374362,7.0313244551433076,4.8483612706159329,30,40,5.4786025700036962,3.2956393854763215,1.0172183806331012
12.5,136.79069177109793,-291.32321176628056,321.83987799686457,-64.847616950540797,4.7624362873929149,-3.7027396450419929,-3.7027396450419929,-16.777346916456466,-110.67043328243477,7.1623981703939261,4.7491671377142941,30,40,5.5098361426190845,3.0966051099394525,0.97056123049780008
12.75,110.04932565892152,-209.1838734885749,236.36570606936081,-62.2516377192145,5.0179464521444546,-3.5088834904487016,-3.5088834904487012,-19.391330878794044,-127.91337038958116,7.2581775237112147,4.6950712811557871,30,40,5.4329859714285869,2.8698797288731588,0.9811456991594637
13,96.712206104323926,-137.35139457649262,167.98409568072984,-54.849762238086058,5.1055129874579359,-3.4470945814681264,-3.447094581468126,-21.928901139460901,-144.65225059698508,7.3166286800586269,4.7031792583273297,30,40,5.2208454885468525,2.6073960668155554,1.0778649657550639
13.25,92.499388403407096,-70.920602558188193,116.55843479654681,-37.477897897008134,4.9909226719647615,-3.5284080194264082,-3.5284080194264082,-24.45741603201251,-161.3313977895186,7.3533791048284325,4.8059131497335601,30,40,4.8382192161543678,2.2907532610594954,1.3184887115928989
13.5,97.033843809626987,-5.7487763445953703,97.203987952816348,-3.3905289707133437,4.6383509496789044,-3.8049503237637494,-3.8049503237637508,-27.05479547445529,-178.46480450307209,7.4101922914580136,5.0713861725323994,30,320,4.2233347345215302,1.884528615595916,1.8289580812936141
13.75,115.23094089823991,61.831311817419866,130.77186571031501,28.217384900108556,3.9839939694905202,-4.4555913410552002,-4.4555913410551993,24.754737817192325,163.29265727553909,7.7264070758747057,5.7986435495112314,25,320,3.2551697578013679,1.3274062314378932,3.5264375175683149
14,166.20465093798234,127.59759643290042,209.53551634238497,37.513945130653688,2.956270488306886,-6.1171414620143461,-6.1171414620143469,21.843948931195129,144.09187011824258,8.3563940478287932,7.1387161117324558,25,320,1.8270962461895659,0.60941831009322867,5.9562713400908596
14.25,261.12995866297678,116.78064967526285,286.05344858942783,24.094802684747545,1.8907296417805175,-10.22523141443407,-10.22523141443407,21.063728260023723,138.94520657457136,9.058133411343297,8.6248781380161734,25,30,0.94133573854082342,0.5080804652136991,6.3631312928852024
14.5,214.87714084716953,53.739509864858448,221.49519312881159,14.041318921666802,2.1327026301359497,-8.8360652551760275,-8.8360652551760275,24.635286159925997,162.50470392798076,8.6715986737809008,8.0631181983893825,25,30,2.2175574024833757,1.6090769270918575,5.5611965395320695
14.75,159.02771885089578,112.01073074904885,194.51534429410825,35.158844804270672,3.0281799257301079,-5.9600476189137108,-5.9600476189137117,22.515909012618781,148.52440130031596,7.4332792301394468,6.1635186878292743,25,320,3.2503963284200701,1.9806357861098978,4.5867685474508697
15,151.25436352698253,189.74283113790381,242.65247671140648,51.439739307525713,3.5592264292199318,-5.0156489889235436,-5.0156489889235436,19.717437820785076,130.06450887090787,6.2910749769684262,4.6474078361383224,25,40,3.4537432248041009,1.8100760839739971,2.7529744500373243
15.25,165.67567624754494,269.07800567467996,315.99272592568394,58.378721519914805,3.7917340245679783,-4.6923732799797708,-4.6923732799797699,17.126048144411371,112.97061317238112,5.631342549030518,3.8304670467754844,25,310,3.2854322423209714,1.4845567400659379,1.2332528850727202
15.5,196.27537094192488,353.98066743585997,404.75465921558839,60.992486939952308,3.8904960760257037,-4.5676106128164768,-4.5676106128164768,14.693034867822659,96.921434786621191,5.4371937900385365,3.5707852239435121,25,50,2.97284988762617,1.1064413215311455,0.81491516385492668
15.75,246.79520121041296,450.17704924635922,513.38800824390819,61.267649901087758,3.9430034511549237,-4.5040028459873698,-4.5040028459873698,12.344372125423996,81.428667984462791,5.2689246416172164,3.3679778532207285,30,50,2.6020859494597981,0.70113916106330998,0.62590016347683597
16,329.95127939437089,563.9969392445488,653.42206440493078,59.671376665040192,3.9887087314894258,-4.4500911158120635,-4.4500911158120635,10.027393275132628,66.144901454221539,5.3234628333323917,3.3926230221740821,25,120,2.2130366145823115,0.28219680342400189,0.12485285660086493
16.25,476.02851708612951,699.94575046324474,846.47929843013549,55.780636896734393,4.0429059508194189,-4.3878467840348572,-4.3878467840348563,7.699063927052574,50.786262268935367,5.4856504303334885,3.5195693546096045,25,120,1.8418652973717975,-0.12421577835208653,0.17294803511484508
16.5,757.80549730469613,840.34687648989745,1131.5706096269666,47.956585564801756,4.1050728653994781,-4.3186029835756807,-4.3186029835756798,5.3141320260534943,35.054248849472984,5.6737026184209522,3.667472330358891,25,120,1.5524284361920029,-0.45380185187005839,0.23679383101129398
16.75,1314.0518060239026,819.06140985138654,1548.4165273021408,31.935692895008277,4.1564886406873702,-4.2629966921917912,-4.262996692191793,2.8141103516979533,18.563054902412198,5.8780244878394594,3.8388090731859896,25,240,1.4732461380886643,-0.56596927656480545,0.3157141614908634
17,1865.1990407322132,48.007206364986146,1865.816752366464,1.4743751729943555,4.1478021750624814,-4.2722883583830811,-4.272288358383082,0.11445291972443228,0.75497957331491727,6.088803407780734,4.0551466901879039,20,240,1.8147082494550437,-0.21894846813778646,0.38529451201449544
17.25,1267.6773342029555,-777.58151587781617,1487.1579732788155,-31.524566522757215,3.9807454034944096,-4.4593891984700074,-4.4593891984700074,-2.9113141842281349,-19.204252245257663,6.2119250299859967,4.2862821094993127,20,240,2.7589619608323179,0.83331904034563431,0.43866669338048903
17.5,634.21962918110046,-693.98616809320617,940.13368174068967,-47.576454645598126,3.5225467979243086,-5.0708767509732162,-5.0708767509732162,-6.4445793890395295,-42.511154883998387,7.0363492184144896,5.4178554569921307,15,150,4.1864392721149537,2.5679455106925944,1.5828538626067667
17.75,387.73547251387606,-435.60055050966218,583.16947472401148,-48.327175682959762,2.7454837247737403,-6.6318422110078989,-6.6318422110078981,-10.71209382421676,-70.66147411694304,8.0875091134380526,7.0241394767906602,15,150,5.6058351610824886,4.5424655244350962,1.1119424443257833
18,321.9631516739708,-211.836401295607,385.40229883812287,-33.343009755473723,1.8952412861398247,-10.194893213968509,-10.194893213968513,-16.03966740164055,-105.80438908994235,8.5523947354674021,8.115944470431705,20,150,6.5440065925566016,6.1075563275209044,0.94950880086013367
18.25,349.92743016821311,-26.337907298684787,350.91721494535398,-4.3043523078674575,1.296981943137882,-17.768550733524673,-17.76855073352467,-24.766313640994557,-163.36901627569409,8.4441459597707791,8.3709335475934505,20,210,6.9105959506109613,6.8373835384336328,0.57316306154401286
18.5,459.32198461336856,127.17993649423094,476.60405138420737,15.476677782365487,1.3225721987539099,-17.146845774168856,-17.146845774168852,11.801245532951297,77.845976655763636,7.958882450749071,7.8742917930488527,20,210,6.8947610925228329,6.8101704348226146,0.22777311324053168
18.75,674.35303875638181,219.67027707698847,709.22990032220662,18.04300228114916,1.7551254193252106,-11.242445675345959,-11.242445675345961,5.0543886864569405,33.340872588105881,7.4303327923343847,7.0911867933454396,20,30,6.6945764777294725,6.3554304787405274,0.12088829810184729
19,995.83080511918138,127.81637986965467,1004.0000096550302,7.3140103801565708,2.2585324452890077,-8.2631526676479758,-8.2631526676479758,1.2320902890745657,8.1273855046303218,7.1102804979903027,6.4087027572388431,20,30,6.4183072044111222,5.7167294636596626,0.51037683101367326
19.25,1175.8936994022756,-294.16083821621015,1212.1289498374472,-14.044837755126506,2.8024855290395561,-6.4839156641719642,-6.4839156641719633,-1.7895422229263289,-11.804572807289736,6.8415565451949707,5.7362388468651755,20,30,6.1004338922130366,4.9951161938832414,0.98692857807499834
19.5,907.44848971644126,-690.8206187562979,1140.4805516919105,-37.281222116890241,3.385776139337719,-5.2883353933204882,-5.2883353933204882,-4.4745738881144792,-29.516170430151053,6.663879674782117,5.1401327793170193,20,30,5.7269343016777015,4.2031874062126038,1.611717164896616
19.75,541.49028376182173,-734.79723623100369,912.76432104962328,-53.612578637089833,4.0001686997620105,-4.4367796267806456,-4.4367796267806465,-7.0280982476577583,-46.360290580680434,6.6086062208901053,4.6702960637468527,20,330,5.2419380554451553,3.3036278983019027,2.4617283028771975
20,316.87100521191149,-619.63556544158973,695.95651294037464,-62.915576196122721,4.5995159205919958,-3.8381276998566634,-3.8381276998566616,-9.5790299600523579,-63.187308540695341,6.8784818701365715,4.5631933724164311,15,330,4.5361961751697644,2.2209076774496239,4.5798437142078026
20.25,201.4930452965456,-483.19220618569938,523.52092166548528,-67.36367216619233,5.0583375209677452,-3.4801060341139696,-3.4801060341139687,-12.226887338853167,-80.653688942863866,7.3872170941877116,4.8008257530518925,15,330,3.4260344957292954,0.83964315459347683,5.386694321008485
