mhz,zreal,zimag,zmag,zphase,vswr,s11,s11_real,s11_imag,s11_ang,gain_max,gain_net,gain_max_theta,gain_max_phi,gain_viewer,gain_viewer_net,fb_ratio
3,3.4945441157237367,-90.518010765512088,90.585440946777439,-87.789133408202844,61.254740468482304,-0.28362413531131997,-0.28362413531131953,-8.7585509932589609,-57.775084354934272,6.6191349347865893,-5.3723166495503323,90,20,-3.8525947751112177,-15.844046359448139,1.9286549331065739e-15
3.2000000000000002,5.0507731966422744,-37.441942225095048,37.781071285384108,-82.317396960983459,15.487145652283001,-1.1232529629159715,-1.1232529629159707,-16.067092521670968,-105.98529671089712,6.7076861731714583,0.28509042153735997,90,0,-3.696341040265545,-10.118936791899642,0
3.4000000000000004,7.4010055926859115,17.755551170185328,19.236280335346482,67.372273739334261,7.6246423135363379,-2.2915731710479275,-2.2915731710479257,21.251702141390378,140.18516131832308,6.7672695925615054,2.895242399186134,90,130,-3.5579887525620335,-7.4300159459374049,1.9286549331065739e-15
3.6000000000000005,11.052327708867068,77.240825332310649,78.027553119399514,81.856868229918973,15.476544975318003,-1.1240244847414982,-1.124024484741498,9.8663069761646653,65.082308507230522,6.8027292858020392,0.38274637690475721,90,0,-3.4332098513293614,-9.8531927602266443,0
3.8000000000000007,16.93909505159289,144.02404440644179,145.01675181976603,83.292089897699199,27.745676600735383,-0.62637892664691552,-0.62637892664691497,5.7389120187949398,37.856276254669794,6.817715826051387,-1.9011817676420772,90,0,-3.3187389021488185,-12.037636495842282,0
4.0000000000000009,26.907107365373061,222.7008895761619,224.32048200016325,83.110817639342017,39.235276014628134,-0.44285510596545263,-0.44285510596545208,3.7856672990362839,24.971852959453422,6.8149495716855943,-3.3198230922748744,90,320,-3.2121323492899361,-13.346905013250405,9.6432746655328694e-16
4.2000000000000011,44.944451340339988,320.92545669308805,324.0573289712043,82.02778281859699,47.821770043928261,-0.36331386252830067,-0.36331386252830111,2.6352380635775234,17.383138093927347,6.7964060349732813,-4.1590080001930927,90,0,-3.1115982261524229,-14.067012261318798,0
4.4000000000000012,80.753521119542057,452.56258064073194,459.71080101451099,79.882840304234918,52.940788174225901,-0.32817504941733999,-0.32817504941734027,1.8536495293055242,12.22745155020923,6.7635565749461719,-4.6162852446561011,90,140,-3.0157691665896906,-14.395610986191963,1.9286549331065739e-15
4.6000000000000014,162.07655540805447,644.4525034461617,664.52075890145466,75.883168650970447,54.781508393642874,-0.31714550616034537,-0.31714550616034459,1.2657970258352356,8.3497293102639354,6.7173269313890227,-4.8055383705570183,90,0,-2.9237492302801424,-14.446614532226183,0
4.8000000000000016,387.33168314117887,943.87842545078945,1020.2609052572974,67.688624913574216,53.859406992246889,-0.32257644189428636,-0.3225764418942853,0.78733654722775037,5.1936028535788914,6.6582414143055404,-4.7935651734467202,90,0,-2.8349704840089656,-14.286777071761225,0
5.0000000000000018,1165.3047680485847,1265.0518646143337,1719.9684365129983,47.350223775449372,50.796057155374839,-0.34203489362682721,-0.34203489362682638,0.37152144656429131,2.4507116452755118,6.5877787920794928,-4.6192552913286393,80,90,-2.748980124067212,-13.956014207475345,1.9286549331065739e-15
5.200000000000002,2308.3320914268784,-68.523798899206383,2309.3489462025364,-1.7003497165452981,46.207344058382148,-0.37601148612740265,-0.37601148612740326,-0.011165547184462403,-0.073652643108181884,6.5241344218948658,-4.2883469434562205,75,90,-2.665398877342958,-13.477880242694045,9.6432746655328694e-16
5.4000000000000021,1129.5758365675349,-1009.3171387738942,1514.8143969410796,-41.781947926462401,40.648412198884984,-0.42745298496447676,-0.42745298496447648,-0.38222234014297868,-2.5212992378644765,6.4764076477065426,-3.8045255606722144,65,90,-2.5841172721583296,-12.865050480537086,1.9286549331065739e-15
5.6000000000000023,526.38230402226122,-794.84611640973253,953.34079885391372,-56.485709958351137,34.59835057022304,-0.50223836739996952,-0.50223836739996908,-0.75977957780979732,-5.0118254986358242,6.4418767220549711,-3.1755669287639794,65,90,-2.5050060819077786,-12.122449732726729,0
5.8000000000000025,308.43945819349,-584.58282878646912,660.96292111031755,-62.182831518374016,28.45485498387071,-0.61075469570663832,-0.61075469570663854,-1.1619753525806655,-7.6648779079292551,6.4263174483033145,-2.3946566501168727,60,270,-2.4279496849520759,-11.248923783372263,1.9286549331065739e-15
6.0000000000000027,211.01178663979138,-437.33057324463778,485.57595121196056,-64.242713627939622,22.540535423847206,-0.77119684752247852,-0.77119684752247886,-1.6096351123009087,-10.61782987453339,6.4199262912430743,-1.4661582464938139,55,90,-2.3523627226224635,-10.238447260359351,1.9286549331065739e-15
6.2000000000000028,159.69950334468621,-330.10817519272172,366.7087927737868,-64.18326374200484,17.09564014157559,-1.0173139468229779,-1.0173139468229784,-2.1289095689473081,-14.043182488133382,6.4298498794635739,-0.37217555415540815,55,90,-2.280024443231579,-9.0820498768505615,9.6432746655328694e-16
6.400000000000003,129.5813408921268,-247.02969136600194,278.95338736746641,-62.32039450958392,12.314871021678192,-1.413747121701284,-1.4137471217012831,-2.7528947717769583,-18.15925120286261,6.4486300650771664,0.88678937749312414,50,90,-2.2105264651266645,-7.7723671527107072,0
6.6000000000000032,110.6331749151155,-178.95841322979288,210.39442259129362,-58.275392272788935,8.3342243427364462,-2.0944808892030942,-2.0944808892030937,-3.516178962154179,-23.194194599295692,6.489090471765806,2.3167775584323023,50,90,-2.1442111779269628,-6.316524091260467,3.857309866213147e-15
6.8000000000000034,98.222095136370541,-120.50278785104126,155.46222001776277,-50.816445368750216,5.2393827836230242,-3.3567799690597444,-3.3567799690597444,-4.4083445597282038,-29.079293937996962,6.5266430239995916,3.8372116193995458,50,270,-2.0815870294517231,-4.7710184340517685,1.9286549331065739e-15
7.0000000000000036,89.989809050382988,-68.285248607593047,112.96477729949801,-37.191623369010117,3.0655172569196307,-5.8817396219671352,-5.8817396219671352,-5.1001903355834379,-33.642999520279375,6.5946449502208253,5.2979663391049137,45,90,-2.023676778692864,-3.3203553898087756,1.9286549331065739e-15
7.2000000000000037,84.580821290895216,-20.033298753921628,86.920931824309335,-13.325172029942472,1.8317361325653394,-10.641344274407691,-10.64134427440769,-3.2771994922091885,-21.617785551064319,6.6731100971402597,6.2812834860778661,45,90,-1.9685527633942004,-2.3603793744565942,2.8929823996598604e-15
7.4000000000000039,81.334183432774438,25.874723636202702,85.350751126900263,17.647351305687366,1.8718223656956376,-10.354591345224367,-10.354591345224364,4.3058813028799729,28.403403221342565,6.7491101890370375,6.3292049550529823,45,90,-1.9205042164300314,-2.3404094504140871,2.8929823996598604e-15
7.6000000000000041,79.807553273720757,70.71217593931928,106.62765769541701,41.542022433276735,3.1591885135760767,-5.6943608767312215,-5.6943608767312215,5.8461666159391665,38.563772666146015,6.844727557445534,5.4809107868845652,40,90,-1.879518843750986,-3.2433356143119547,0
7.8000000000000043,79.788576003341902,115.56133483696104,140.43019251550319,55.377112093897907,5.3841494640319336,-3.2643538878550684,-3.2643538878550666,5.1337085569008227,33.864099798799153,6.9657370465227864,4.1954471128149544,40,90,-1.8469457456839964,-4.6172356793918281,0
8.0000000000000036,81.209836455284858,161.43817711150612,180.71337129880604,63.295781835830986,8.5413121605005795,-2.0432237338510064,-2.043223733851006,4.2691387101045306,28.161033633193338,7.0867731562272134,2.8304569177670063,40,90,-1.8242254461755789,-6.0805416846357865,1.9286549331065739e-15
8.2000000000000028,84.128035951535864,209.39177350609472,225.66001250795537,68.111052796119196,12.621037852184489,-1.3793056807693609,-1.37930568076936,3.5450992786915951,23.384965164975636,7.2078353161190334,1.5551819255294195,40,90,-1.8128999957311775,-7.4655533863207912,0
8.4000000000000021,88.730903763581111,260.60192200154108,275.29354339250165,71.197089388686138,17.588979114778056,-0.98871758195338355,-0.98871758195338322,2.9675245877541623,19.575039697182145,7.3320716381066653,0.41996709407595478,35,90,-1.8147217117897081,-8.7268262558204182,0
8.6000000000000014,95.379355142746817,316.48409382290509,330.54410149078689,73.22867873265298,23.391965866252729,-0.74309160363129789,-0.74309160363129645,2.503213992727817,16.512251821061632,7.5043118754863736,-0.52935706796490134,35,270,-1.8320690138815521,-9.8657379573328274,9.6432746655328694e-16
8.8000000000000007,104.65755536036491,378.88712824286876,393.07589577858357,74.558592704294782,29.970900942221864,-0.57983675936598511,-0.57983675936598467,2.1217551578680665,13.995988985014979,7.6788863981729278,-1.3525924887325225,35,90,-1.8673292536465365,-10.898808140551987,9.6432746655328694e-16
9,117.55372700916409,450.27386883737574,465.36591591082748,75.368287461813864,37.243841591795245,-0.46654574106297592,-0.46654574106297664,1.8007731672870038,11.878656837664506,7.8549430269667431,-2.0651425647232751,35,270,-1.9244332223952312,-11.84451881408525,2.8929823996598604e-15
9.1999999999999993,135.7147883709886,534.15456462204781,551.12575941354044,75.744275600505759,45.107710401748164,-0.38518084542490483,-0.38518084542490527,1.5243276952551303,10.055106289351922,8.0312273050893008,-2.6811360809443752,35,270,-2.0084395789878053,-12.72080296502148,5.7859647993197193e-15
9.3999999999999986,161.92898516957595,635.76894691406289,656.06642201705858,75.710704157573502,53.452033722175983,-0.32503546106430908,-0.32503546106430975,1.2810986049859165,8.4506649589659553,8.2078773500827165,-3.21216249546843,35,270,-2.1239178938135157,-13.543957739364663,9.6432746655328694e-16
9.5999999999999979,201.36672549317581,763.32087597953534,789.43480911472943,75.221847481540394,62.129953541848671,-0.27962807988148575,-0.2796280798814848,1.0628194790902763,7.0108040822926219,8.3903611229427195,-3.6607380696063689,30,270,-2.2779950803710354,-14.329094272920123,1.9286549331065739e-15
9.7999999999999972,264.27784892288713,930.43261288978181,967.23711082661362,74.143459904341185,70.975411427440079,-0.24477390914670066,-0.24477390914670027,0.86330059174269558,5.6946936256907179,8.61854898926949,-3.9934550320082352,30,270,-2.4790128645434253,-15.091016885821151,2.8929823996598604e-15
9.9999999999999964,373.31141215196709,1161.0834767288409,1219.6213553294435,72.176369862869507,79.812313986477903,-0.2176692735062018,-0.21766927350620111,0.67775942234958109,4.4707860728031745,8.8461575314996352,-4.2620943823211874,30,90,-2.7370667587723743,-15.845318672593198,0
10.199999999999996,586.52285902197468,1499.0310348326909,1609.6903762981499,68.63118431489093,88.428658200467098,-0.19645802850347072,-0.19645802850347155,0.50242900967366033,3.3142329637177639,9.072208097126385,-4.4707959297312883,30,90,-3.0652786930166629,-16.608282719874335,0
10.399999999999995,1084.9814724459618,2014.6461032428299,2288.2271995723081,61.695451531173809,96.553203775162203,-0.17992567597042777,-0.17992567597042708,0.33420104998166167,2.2045306203113886,9.2943099328673089,-4.6222540004110471,30,90,-3.4818277672453561,-17.39839170052371,9.6432746655328694e-16
10.599999999999994,2547.3313976922659,2597.8707058136793,3638.3828074837998,45.562775933873453,103.94489023240359,-0.1671300552415384,-0.16713005524153923,0.17046739290878948,1.124474586338672,9.5132672645203424,-4.7173273252498777,30,90,-4.0069114913735051,-18.237506081143724,3.857309866213147e-15
10.799999999999994,5508.5427198102379,314.46966519581241,5517.5115827973341,3.2673341013803889,110.52993046060777,-0.15717238951068435,-0.15717238951068391,0.0089730909512377513,0.059190280108120906,9.7371439854036179,-4.7552857617548945,30,90,-4.6610591583191621,-19.153488905477673,2.8929823996598604e-15
10.999999999999993,2832.7957520281689,-2891.2551691763429,4047.7263032470169,-45.585138298002761,115.68334101950663,-0.15017038613302564,-0.15017038613302486,-0.15328499202744814,-1.0111322468233988,9.9466424991789246,-4.7402264763261641,30,90,-5.5083896227157396,-20.195258598220828,0
11.199999999999992,1033.0524698025401,-2250.3805593278994,2476.1684246363529,-65.342189655354559,118.74469608400263,-0.14629866038696152,-0.14629866038696271,-0.31878066448011455,-2.1028112749741084,10.128968917167533,-4.6694146881044674,30,90,-6.6222962687923124,-21.420679874064312,0
11.399999999999991,483.20671861450603,-1629.5965315210951,1699.7275041781791,-73.483896720865417,119.67431714109125,-0.14516217033248488,-0.14516217033248621,-0.4898363629502579,-3.2311665721129867,10.340772491109993,-4.4909150139144387,25,90,-8.0794468570979721,-22.911134362122404,0
11.599999999999991,271.78544663457291,-1236.9319569430825,1266.4391004345207,-77.607585981395275,118.20007631830799,-0.14697277954233079,-0.14697277954233226,-0.66958771739910494,-4.4168820716503854,10.544945780803975,-4.233807405611973,25,90,-10.00164071517351,-24.780393901589456,3.857309866213147e-15
11.79999999999999,172.73213811996726,-976.47944015144583,991.63929358309338,-79.968564051947823,114.13890105143206,-0.15220247978649601,-0.15220247978649568,-0.86188004965583231,-5.6853231329047054,10.727123976617728,-3.9023808422787649,25,90,-12.441844248526394,-27.071349067422886,0
11.999999999999989,119.72441380929185,-791.43076901126233,800.43525497052951,-81.397751910687475,107.43688082447879,-0.16169755522254622,-0.16169755522254603,-1.0716702386655996,-7.0691874132183772,10.883264055692282,-3.4881424527703704,25,270,-14.610777964326623,-28.982184472789275,1.9286549331065739e-15
12.199999999999989,88.675496258761314,-652.00824371518229,658.01070926641773,-82.255084524420809,98.20817817408755,-0.17689341171558509,-0.17689341171558481,-1.3056534131060422,-8.6126387959112822,11.009058989097518,-2.979814040265202,25,90,-13.755173896773343,-27.744046926136065,2.8929823996598604e-15
12.399999999999988,69.333297859070015,-541.7727972756112,546.19123945725732,-82.707220890551184,86.764923829179423,-0.20022548009704336,-0.20022548009704288,-1.57329635790268,-10.378124174089702,11.100017506623271,-2.3623602864633728,25,90,-10.451591315568404,-23.913969108655046,0
12.599999999999987,56.800163803416687,-451.02215708449131,454.58469484711264,-82.822156262515492,73.629602181703234,-0.23594922415572905,-0.23594922415572858,-1.8886340789430571,-12.458224346757826,11.151578162018396,-1.6155199164493972,25,90,-7.219326884706657,-19.98642496317445,1.9286549331065739e-15
12.799999999999986,48.53220681009438,-373.65656794844921,376.79517760830197,-82.599594091072362,59.520819785749183,-0.29188801694479743,-0.29188801694479566,-2.2735857435638493,-14.997527356257475,11.159237970032221,-0.71156911779710619,25,270,-4.5394316299616797,-16.410238717791007,1.9286549331065739e-15
12.999999999999986,43.131554713462116,-305.60616878432592,308.63483505760377,-81.966650558275575,45.306904767447762,-0.38348682464235456,-0.38348682464235584,-2.7644941723104308,-18.235765725048282,11.118701186160235,0.38802997474211942,25,90,-2.3276218062091294,-13.058293017627246,1.9286549331065739e-15
13.199999999999985,39.811505479311244,-243.9877652695514,247.21445259077987,-80.732712169225067,31.92676923213228,-0.54429132315742557,-0.54429132315742623,-3.4260643657319552,-22.599760838059165,11.026034194591068,1.7372014412394901,25,270,-0.47354932599716953,-9.7623820793487468,1.9286549331065739e-15
13.399999999999984,38.144928380531766,-186.61881916359522,190.47734570591473,-78.447856379938571,20.284528604116016,-0.85710017640601277,-0.85710017640601355,-4.3838094704530288,-28.917450174842521,10.877797348606066,3.4087657340060975,25,90,1.1019310084912524,-6.3671006061087159,0
13.599999999999984,37.946127266926851,-131.71266744380065,137.06981921531462,-73.928426235556756,11.130344177136056,-1.5649784534389495,-1.5649784534389495,-5.9063020428356827,-38.960451222261092,10.671162515924252,5.4793859013377553,25,90,2.4525512592927483,-2.739225355293748,1.9286549331065739e-15
13.799999999999983,39.226616959867052,-77.662045751295196,87.006441304034482,-63.201942765173015,4.9315547079116433,-3.5720843410527623,-3.5720843410527623,-8.6200882673978292,-56.861726006869844,10.434250059576694,7.9213177191043629,20,90,3.6155505671033823,1.1026182266310509,2.8929823996598604e-15
13.999999999999982,42.205349141788567,-22.856053205712175,47.996777645198421,-28.437493987264567,1.6817088560639908,-11.896253805345706,-11.896253805345706,-14.387963239455077,-94.909054076981008,10.16556634987942,9.8754418512242008,20,90,4.6177716411286829,4.327647142473463,1.9286549331065739e-15
14.199999999999982,47.380351605862366,34.514400426619659,58.618610996032544,36.071611246901419,2.007643320445323,-9.4983900237960253,-9.4983900237960253,11.343219491411018,74.824644336397895,9.8358287423488804,9.318767606995106,20,90,5.4794665311067696,4.9624053957529952,0
14.399999999999981,55.700793720735447,96.710256163162327,111.60399665005012,60.05997653396453,5.1767529400258914,-3.3984288727315177,-3.3984288727315159,6.6960148722462325,44.169729032081946,9.4450221608604235,6.7909918499522934,20,90,6.2166227136153935,3.5625924027072631,3.857309866213147e-15
14.59999999999998,68.944511347337581,166.83164395056903,180.51632355045513,67.546747613118214,10.078864055146649,-1.7292744041657682,-1.7292744041657682,4.3976803294269242,29.008948191798634,8.9936951119231896,4.1585062329282438,20,270,6.8424112842906881,2.0072224052957424,4.8216373327664331e-15
14.799999999999979,90.575205640419284,249.46195800409413,265.39618755370367,70.04493967881163,16.042544751041639,-1.0842626176911521,-1.084262617691151,3.0567400766876212,20.163542567447376,8.4828476033775644,1.9254912498295438,20,270,7.3680901790846667,0.81073382553664608,1.9286549331065739e-15
14.999999999999979,127.85075543187229,351.75282871342301,374.26710805572418,70.025434249005485,22.258558127160345,-0.78097965958852567,-0.78097965958852644,2.1742221395262606,14.342083252603761,7.9138030723889408,0.077717507636338112,20,90,7.8035699451055285,-0.032515619647074168,6.7502922658730046e-15
15.199999999999978,197.58707159308639,484.93395107558325,523.64261454403004,67.831486926805937,27.972316436511637,-0.62129947596353263,-0.62129947596353419,1.5341069776295964,10.119614547002113,8.1577659222833372,-0.59401423760279215,20,320,8.1577659187466534,-0.59401424113947598,3.5366844827286595e-09
15.399999999999977,343.79452745104282,663.23371442580947,747.04326317579626,62.599535355799716,32.580275769004523,-0.53336680514610346,-0.53336680514610446,1.0320217189371792,6.8076491092659541,8.438822343211303,-0.93271535054212684,20,320,8.4388223410845402,-0.93271535266888961,2.1267634743321378e-09
15.599999999999977,692.37592185798314,868.47182993945148,1110.6879564337912,51.436930177703005,35.678809949138426,-0.48702101621649851,-0.48702101621649979,0.61171352790025235,4.035119588010895,8.6542313732969589,-1.0893698401771186,20,320,8.654231372412946,-1.0893698410611314,8.8401248908395905e-10
15.799999999999976,1470.0094880975319,750.81690117889536,1650.6525722248903,27.055968533441199,37.076924446962622,-0.46864710704419821,-0.4686471070441981,0.2395110619070295,1.5799156522886932,8.8109359047386526,-1.0906644072444607,20,220,8.8109359047226139,-1.0906644072604994,2.3957076549162505e-10
15.999999999999975,1749.1763634803222,-396.1924010639961,1793.4844212367996,-12.762282807009504,36.779692726937121,-0.47243629593463055,-0.47243629593463066,-0.10706337017965016,-0.7062349980280529,8.9153339703624717,-0.95315357715327131,20,220,8.9153339703312042,-0.95315357718453875,1.2852469682848445e-09
16.199999999999974,970.47160976547173,-867.82410686725916,1301.8962423406645,-41.804013849651831,34.953017836362065,-0.49713937198640579,-0.49713937198640618,-0.44499396705235206,-2.9353672774953194,8.9733439930092889,-0.68591631181469737,20,220,8.9733439929634677,-0.68591631186051849,2.28417932556489e-09
