mhz,zreal,zimag,zmag,zphase,vswr,s11,s11_real,s11_imag,s11_ang,gain_max,gain_net,gain_max_theta,gain_max_phi,gain_viewer,gain_viewer_net,fb_ratio
135,34.640055211819579,6.1627764202421309,35.183991221630912,10.087884096781641,1.4845322152684897,-14.198439497668227,-14.198439497668225,23.342011147900514,153.97371826934744,6.8983505586317335,6.729954090360696,90,140,-2.0147391370414978,-2.1831356053125353,4.5845523285112559
135.09999999999999,35.082584158059184,6.1551754016424329,35.618448807216318,9.9511591657997513,1.466617521544892,-14.462815391965563,-14.462815391965558,23.261156317812521,153.44036581956058,6.9086499899093088,6.7503823513976995,90,20,-1.9211790227533685,-2.0794466612649778,4.6913729529873374
135.19999999999999,35.508392758356955,6.130277259907567,36.033682237110831,9.7951628475473207,1.4496136972442468,-14.725161368884972,-14.725161368884972,23.189834985607458,152.96990032959252,6.9181190579014871,6.7692897755375316,90,30,-1.8310301587631193,-1.9798594411270751,4.7977633319860544
135.29999999999998,35.916221301767983,6.089445114537356,36.428783872104965,9.6227516312304378,1.4335166609330052,-14.984570620057484,-14.984570620057482,23.128226089848472,152.56350215342965,6.9267776354952098,6.7867185181807903,90,50,-1.7442825841459411,-1.8843417014603601,4.9037042075427006
135.39999999999998,36.304951893704846,6.0341652193542608,36.802998273220723,9.4367382726741766,1.4183212478984539,-15.240081346469694,-15.240081346469694,23.076430511948129,152.22183674727879,6.9346454061068261,6.8027115766593615,90,30,-1.6609214273997406,-1.7928552568472047,5.009175926570272
135.49999999999997,36.673623243305528,5.966028427047978,37.155728185358768,9.2398781596026804,1.4040211092571258,-15.490684402494416,-15.490684402494415,23.034459020275836,151.94497514383144,6.9417418727473388,6.8173126238997677,90,320,-1.5809269642379729,-1.705356213085544,5.1141584653768604
135.59999999999997,37.021442507684384,5.8867095560354139,37.486538313732019,9.0348557419051847,1.3906085938030948,-15.735333647698365,-15.735333647698365,23.00222063329317,151.73231719061246,6.9480863654616263,6.8305658406095766,90,130,-1.5042747032430088,-1.6217952280950585,5.2186314554966051
135.69999999999996,37.347793861948965,5.7979452557634739,37.795156773632556,8.8242713263428509,1.3780746166895699,-15.972959136088271,-15.972959136088269,22.979511993579163,151.58252145658381,6.9536980492992022,6.8425157495415672,90,50,-1.4309354968189378,-1.5421177965765727,5.3225742111639471
135.79999999999995,37.652243604281146,5.7015109871929788,38.081474183298276,8.6106284839675702,1.3664085194324203,-16.202483144148566,-16.202483144148562,22.966008452616144,151.49344642364409,6.9585959302427955,6.8532070512776073,90,0,-1.3608756802025486,-1.4662645591677366,5.4259657586555452
135.89999999999995,37.934541709146401,5.5991976402184944,38.34554040429208,8.3963221423671293,1.355597926694541,-16.422838864741351,-16.422838864741351,22.961257712201771,151.46210854270922,6.9627988639620568,6.8626844686528354,90,150,-1.2940572242520094,-1.3941716195612306,5.5287848632632901
135.99999999999994,38.194619860602856,5.4927885584929621,38.58755903713358,8.1836278010013999,1.3456286105043855,-16.632991296933145,-16.632991296933145,22.96467670828887,151.48466167820999,6.9663255670850655,6.8709925998743717,90,330,-1.230437900381264,-1.3257708675919575,5.6310100695431569
136.09999999999994,38.432586284463078,5.3840375759226706,38.807879987595904,7.9746920422149561,1.3364843666890163,-16.83195976274942,-16.831959762749417,22.975552390928957,151.55640225292746,6.9691946053772895,6.8781757584736418,90,70,-1.1699715243734636,-1.2609903712771113,5.7326197189141945
136.19999999999993,38.648717363146581,5.2746483210468638,39.00698999829531,7.7715241525155987,1.3281469201127312,-17.018841019756628,-17.018841019756625,22.993047232818942,151.67180558468266,6.9714244082402193,6.8842778477285327,90,0,-1.1126081441379214,-1.199754704649608,5.8335919894061998
136.29999999999993,38.843446730397694,5.1662555458096158,39.185501786526245,7.5759893496513806,1.3205958622282918,-17.192832014055458,-17.192832014055455,23.016209492778806,151.82459358855019,6.9730332666563708,6.8893422310730061,90,30,-1.0582942807869651,-1.1419853163703295,5.9339049243921513
136.39999999999992,39.017351870887815,5.06040878902866,39.344141674825636,7.3898036984227247,1.3138086432215041,-17.353250757415502,-17.353250757415502,23.043988389348435,152.00783486828158,6.9740393259348181,6.8934116048723366,90,50,-1.00697320158408,-1.0876009226465611,6.0335364632922612
136.49999999999991,39.171139795846955,4.9585581831236807,39.483737059214747,7.214529893207474,1.3077605866985507,-17.499555014504033,-17.499555014504033,23.0752538533307,152.21407501238326,6.9744606110990004,6.89652793008774,90,130,-0.95858509193877905,-1.0365177729500399,6.1324644710017848
136.59999999999991,39.305629816398287,4.8620436498352797,39.605201725488556,7.05157595055499,1.3024250235578092,-17.631355470637956,-17.631355470637956,23.108820052283274,152.43549177155404,6.9743149783791374,6.8987322754897464,90,30,-0.91306746319567988,-0.98865016608507084,6.2306667681330214
136.6999999999999,39.421737263923198,4.772086157943451,39.709522475152312,6.9021941374617528,1.2977734241998051,-17.748425341358335,-17.748425341358331,23.143471669020276,152.66406840272921,6.9736201356555325,6.9000647706999336,90,20,-0.87035533396378595,-0.94391069891938528,6.3281211588214745
136.7999999999999,39.520456061735764,4.689781915149343,39.797744932838206,6.7674818724247254,1.2937756192037262,-17.850703638816448,-17.850703638816448,23.177991698793456,152.89177703097326,6.9723936288904396,6.9005645242944942,90,140,-0.83038152576945901,-0.90221063036540439,6.4248054588914094
136.89999999999989,39.602840672627465,4.6160998050886013,39.870958939459371,6.6483850646997587,1.2904001031277272,-17.938291766242376,-17.938291766242372,23.211188939185096,153.11075998436979,6.9706528744290344,6.9002695872399702,90,0,-0.79307696071417189,-0.8634602479032365,6.5206976012655993
136.99999999999989,39.669991426055212,4.551879201983323,39.930287051469371,6.5456993320369605,1.2876142699128905,-18.011447346152025,-18.011447346152025,23.241924734942195,153.31350621419125,6.9684150419276651,6.8992168266647749,90,130,-0.75837096994162689,-0.82756918520451728,6.6157753462274105
137.09999999999988,39.723037026819689,4.4978325895548954,39.976870420753926,6.4600767326393207,1.2853848214867181,-18.070569354223032,-18.070569354223032,23.269135980383908,153.49300302844827,6.9656971796814506,6.8974419919329835,90,0,-0.72619142012035875,-0.79444660786882559,6.710016896223145
137.19999999999987,39.763119730153804,4.454548792269641,40.011856937878527,6.3920313536562592,1.283678128753645,-18.116180781779494,-18.116180781779494,23.291854814128293,153.64286600658679,6.9625160601977845,6.8949795395088112,90,20,-0.69646528114044159,-0.76400180182941513,6.8034001290687476
137.29999999999987,39.791383220769383,4.4224971021891761,40.036391686077295,6.3419444944275423,1.2824605435663587,-18.148909763535976,-18.148909763535976,23.309223926292944,153.75743997221824,6.9588883088788283,6.8918627719491647,90,20,-0.66911856839454864,-0.73614410532421226,6.8959033929266731
137.39999999999986,39.80895967686407,4.4020339848448105,40.051606381741024,6.3100726946400822,1.2816987805948672,-18.169466865320437,-18.169466865320434,23.320506654651332,153.83186559161138,6.9548303048015221,6.8881237233502652,90,50,-0.64407676801249325,-0.71078334946375044,6.9875050844264823
137.49999999999986,39.816959516399542,4.3934100705152188,40.058611024077017,6.2965550524572302,1.2813602301739695,-18.178623116825044,-18.178623116825044,23.325092456356522,153.86211546748197,6.9503581889766384,6.8837931793646199,90,50,-0.62126504941359106,-0.68783005902560979,7.0781837991034324
137.59999999999985,39.816462384311343,4.3967781995295665,40.058486433428044,6.3014214210679294,1.2814132487987016,-18.177188386683667,-18.177188386683667,23.322497693563783,153.84499932128986,6.945487851139438,6.8789006780828386,90,20,-0.60060850745292771,-0.66719568050952693,7.1679183187765432
137.69999999999985,39.808509673235818,4.412201812250764,40.052277928179549,6.3246006570150115,1.2818274057439705,-18.165991379308892,-18.165991379308892,23.312362571431503,153.7781437950058,6.9402349173742861,6.8734745193556748,90,0,-0.58203237931276597,-0.64879277733137697,7.2566876415464767
137.79999999999984,39.794098426937794,4.4396635824474124,40.040990026947668,6.3659289980521834,1.2825736861533983,-18.145861787073564,-18.145861787073564,23.294444867343621,153.65995108642642,6.9346147505608897,6.8675417918388142,90,10,-0.56546222527177747,-0.63253518399385278,7.3444710119852372
137.89999999999984,39.774176748974718,4.4790741462302002,40.025582335127979,6.4251585046251911,1.2836246436914156,-18.117615154748755,-18.117615154748755,23.268611122187515,153.48954084313996,6.9286424155959017,6.8611283712072177,90,50,-0.55082416952538948,-0.61833821391407351,7.4312479278593564
137.99999999999983,39.749640278502945,4.5302807155887033,40.006966213803544,6.5019654636300572,1.2849545134093663,-18.082040376284564,-18.08204037628456,23.234826198547609,153.26668128398197,6.9223326868521635,6.8542589621512642,90,130,-0.53804504225829042,-0.60611876695918987,7.5169981704589537
138.09999999999982,39.721329890158408,4.5930753604850354,39.986002419720414,6.5959585197150048,1.2865392785346006,-18.039890061947652,-18.039890061947649,23.193141890342769,152.99171406341486,6.9157000329905625,6.8469571223125296,90,230,-0.52705255477683666,-0.59579546545486917,7.6017018223131796
138.19999999999982,39.690030379330196,4.6672029744297747,39.963499535409561,6.70668665998594,1.2883567001824221,-17.991873490409965,-17.991873490409965,23.143685126005671,152.66547645474,6.9087586083563712,6.8392452946300279,90,0,-0.51777544834151767,-0.58728876206786096,7.6853392883542693
138.29999999999981,39.656470035112008,4.7523688477717361,39.940213135523045,6.8336470001424763,1.2903863141734153,-17.938651912687735,-17.938651912687732,23.086646245992686,152.28922402362463,6.9015222459376746,6.8311448427122903,90,20,-0.51014362627900578,-0.58052102950438977,7.7678913173233894
138.39999999999981,39.621320938541224,4.848245551730308,39.916845539756245,6.9762919924118476,1.2926093985527232,-17.880835940094272,-17.880835940094268,23.022267931698277,151.8645575985675,6.8940044491604136,6.8226760866183609,90,0,-0.50408827795060163,-0.5754166404926544,7.8493390232814173
138.4999999999998,39.5851999269129,4.9544795117527318,39.894046178421696,7.1340366010088738,1.2950089201917208,-17.818984598676685,-17.818984598676685,22.950834700886602,151.39335397834924,6.8862183872232352,6.8138583418917591,90,0,-0.49954198103958958,-0.57190202637106557,7.9296639073738575
138.5999999999998,39.548670040386035,5.070696766098485,39.872412363149657,7.3062647394053561,1.297569461871559,-17.753605811602672,-17.753605811602672,22.872663543644194,150.8777041628399,6.8781768893038295,6.8047099582458461,90,60,-0.49643879703649674,-0.56990572809448037,8.0088478814305812
138.69999999999979,39.512242395779452,5.1965083382584423,39.852490487451604,7.4923355585437799,1.3002771381816625,-17.685157899744247,-17.685157899744244,22.788095429050369,150.31985732742655,6.8698924422577132,6.7952483605075509,90,150,-0.49471434834359496,-0.56935843009375697,8.086873290026066
138.79999999999978,39.476378395395621,5.3315149813090006,39.834777559469067,7.6915892172007911,1.3031195012700616,-17.614051898881417,-17.614051898881414,22.697487903621337,149.7221719992389,6.8613771862916737,6.7854900872439519,90,210,-0.49430588661980585,-0.57019298566752807,8.1637229348050777
138.89999999999978,39.441492135933125,5.4753113320361031,39.819722953476173,7.9033521668786531,1.3060854416716565,-17.540654406703243,-17.540654406703243,22.601208757007214,149.08707427342407,6.852642914761593,6.7754508321794349,90,200,-0.49515234727451091,-0.57234442985666911,8.2393800988215595
138.99999999999977,39.407953035534561,5.6274896358389022,39.80773043081421,8.1269421274660854,1.3091650861514676,-17.465290782193797,-17.465290782193794,22.499630567077723,148.41702183023858,6.8437010687717725,6.7651454792627348,90,20,-0.49719440019696864,-0.57574998970600622,8.3138285691596874
139.09999999999977,39.376088331326564,5.7876431569095006,39.799160111592222,8.3616729350923258,1.3123497049151411,-17.388248292602064,-17.388248292602068,22.393126087340221,147.71447350851867,6.8345627701964435,6.754588170358196,90,100,-0.50037443426656369,-0.58034903410481076,8.3870528072186605
139.19999999999976,39.346186339850476,5.9553679045009229,39.794331083311299,8.6068570777938316,1.3156315817384554,-17.309780246691066,-17.309780246691062,22.282065091807141,146.98186849309943,6.8252387322027053,6.7437922660396952,90,50,-0.50463671423232548,-0.58608318039533558,8.4590374238325605
139.29999999999976,39.318498513808066,6.1302664413818038,39.793523242139024,8.8618116397552935,1.3190039585254538,-17.230108354370355,-17.230108354370351,22.166810506545971,146.22160079689237,6.815739376944034,6.7327704799924852,90,0,-0.50992722937330637,-0.59289612632485522,8.5297679981700529
139.39999999999975,39.293242569236192,6.3119488906550947,39.796979915605121,9.1258601831782133,1.3224609173335109,-17.149426584762843,-17.149426584762843,22.047716567534632,145.43600710932495,6.8060747685422029,6.7215348565188568,90,20,-0.51619379938666499,-0.60073371141001131,8.5992305944153369
139.49999999999974,39.270605009178134,6.5000346939406901,39.804910109298319,9.3983359316715465,1.3259972987627022,-17.067904090974839,-17.067904090974839,21.925126885815786,144.62735403328509,6.7962546330998928,6.7100968191859902,90,320,-0.52338605193936083,-0.60954386585326314,8.6674119125315858
139.59999999999974,39.250743687538595,6.69415393321741,39.817490841418689,9.6785843925252006,1.3296086203536444,-16.985688065336117,-16.985688065336117,21.799373021289586,143.79782867725848,6.7862883623267809,6.6984672035463051,90,50,-0.53145541530097817,-0.61927657408145376,8.7342993106026547
139.69999999999973,39.23379024690189,6.8939483507715282,39.834869411120195,9.9659656108600299,1.3332910010759953,-16.902906366002039,-16.902906366002036,21.670773468209191,142.94953196323067,6.7761850192184667,6.6866562897859501,90,70,-0.54035510430148703,-0.62988383373400325,8.7998808304737217
139.79999999999973,39.219852455313386,7.0990720752848633,39.85716561606759,10.259856032592893,1.3370410904067447,-16.819669943238495,-16.819669943238491,21.539632989875624,142.08447423805447,6.7659533420065765,6.6746738322872261,90,0,-0.55004010384632429,-0.64131961356567424,8.8641452229295083
139.89999999999972,39.20901640572275,7.3091922160912119,39.884473900955548,10.559650189860839,1.3408560048788025,-16.736074999816847,-16.736074999816847,21.406242167507695,141.20457229760649,6.7556017505482826,6.6625290889692472,90,210,-0.56046714520966745,-0.65353980678870316,8.9270819721028474
139.99999999999972,39.201348585971715,7.5239891846839235,39.916865410626961,10.864761987116674,1.3447332688768885,-16.652204961368007,-16.652204961368007,21.270877224213123,140.31164822562656,6.7451383561648317,6.6502308529025402,90,20,-0.57159467099952188,-0.66650217426181324,8.9886813189432146
