mhz,zreal,zimag,zmag,zphase,vswr,s11,s11_real,s11_imag,s11_ang,gain_max,gain_net,gain_max_theta,gain_max_phi,gain_viewer,gain_viewer_net,fb_ratio
130,66.786855776716095,-7.4270660560823778,67.198552177418875,-6.3455341330772796,1.3720918532091793,-16.089626810586491,-16.089626810586491,-3.0664164870517965,-20.227372238071371,3.2651332328341534,3.1569349640221218,60,170,1.4154380404449551,1.3072397716329234,4.1523699472064717
130.25,66.470468590070311,-7.1740090172219508,66.856485100270604,-6.1599612862723321,1.3639368198989681,-16.252197385152829,-16.252197385152826,-3.0337233283320026,-20.011714419293003,3.2351224625698398,3.1309476078030416,60,170,1.4524630067027418,1.3482881519359433,4.2235412613376351
130.5,66.155906483133023,-6.9074173537854486,66.515534855433728,-5.9607228414635118,1.3557141696685826,-16.42042857672028,-16.42042857672028,-2.9934145941865924,-19.74582106349887,3.2109992501481073,3.1108286310865743,50,350,1.4881746807681688,1.3880040617066358,6.0197476372724719
130.75,65.842795730475515,-6.6281024730369591,66.175565671917028,-5.7483473507653171,1.3474328717116846,-16.5944455162401,-16.5944455162401,-2.9452547573533239,-19.42813853385401,3.2004654762368476,3.1042731340653171,50,350,1.5225605980970467,1.426368255925516,6.128460619851853
131,65.530712689624337,-6.3367401039290545,65.836377336202474,-5.5232594493410314,1.3391003311484162,-16.774412730704512,-16.774412730704508,-2.8889385359816178,-19.056653062934714,3.1885224931118143,3.0962765723057721,50,0,1.5556052632300179,1.4633593424239757,6.2028824963680487
131.25,65.219201977872089,-6.0338742106202847,65.49772472857407,-5.2857775364281379,1.3307228337315484,-16.960529008824089,-16.960529008824089,-2.8240781838200752,-18.628806913462277,3.1765101369507298,3.0881735217033346,50,180,1.5872900080840091,1.4989533928366139,6.3072265631355844
131.5,64.907792961705766,-5.7199224675096527,65.159336247340505,-5.0361131804870212,1.3223060244935096,-17.153020509321532,-17.153020509321529,-2.7501897226154921,-18.14140756141915,3.1637106827642709,3.0792413857589924,40,180,1.6175929119902412,1.5331236149849627,8.2536847329831566
131.75,64.596014620087686,-5.3951828401768234,64.820931053769357,-4.7743719376981195,1.3138554194000815,-17.352131732012246,-17.352131732012246,-2.6666779425717291,-17.590528752770023,3.1759442556382709,3.0952955628271828,40,180,1.6464887903998069,1.5658400975887188,8.3421135343713466
132,64.283408761885582,-5.0598414849529041,64.482235056645791,-4.5005558424361007,1.3053769540362015,-17.558113768626534,-17.558113768626534,-2.5728203021298155,-16.971404299642995,3.1861318278876039,3.1092522048796729,40,360,1.6739492357865999,1.597069612778669,8.4198392553514054
132.25,63.969541589326475,-4.7139811108564622,64.14299547933571,-4.2145668744167946,1.2968775658443823,-17.771209308462179,-17.771209308462176,-2.4677494290899236,-16.278312650373785,3.194321446114381,3.1211542174395364,40,360,1.699942741166236,1.6267755124913914,8.4861108351186481
132.5,63.654013780815148,-4.3575900536043726,63.802994141995221,-3.9162116464777825,1.2883658206721342,-17.9916333855458,-17.9916333855458,-2.3504344300049138,-15.504453598408215,3.2005624796083909,3.1310452917257336,40,180,1.7244348820510416,1.6549176941683843,8.5402551441716934
132.75,63.336469093439966,-3.9905717244278369,63.462059373393167,-3.6052070503705815,1.2798525878916234,-18.219548793991539,-18.219548793991539,-2.2196611428301969,-14.64181802047913,3.204905179797779,3.1389692618512379,40,360,1.7473885635350681,1.681452645588527,8.5816960611327548
133,63.016601585283233,-3.6127543213101827,63.120076593303232,-3.2811867820603764,1.2713517738189088,-18.455034710987611,-18.455034710987615,-2.0740117912464724,-13.68105366796606,3.2074002604338232,3.1449694979768994,40,360,1.7687643342238197,1.7063335717668962,8.6099718808846415
133.25,62.694161518749461,-3.2239006756191322,62.776997571605023,-2.943708656174485,1.2628811237672779,-18.698046741651922,-18.698046741651918,-1.9118449040984138,-12.61133270707113,3.2135451602236014,3.1545349985687183,30,360,1.7885207566315362,1.7295105949766534,8.1745618173311971
133.5,62.368960074263327,-2.8237181102068312,62.432848443034878,-2.5922626179533976,1.2544631052346029,-18.948366195441324,-18.94836619544132,-1.7312769820122349,-11.420230784121383,3.2417613704083919,3.1860775649900717,30,360,1.8066148329963094,1.7509310275779892,8.0753420031615715
133.75,62.040872907361134,-2.411868257827086,62.087736467038724,-2.2262794337440002,1.2461258826831023,-19.205536114008236,-19.205536114008233,-1.5301684011084626,-10.093634040532265,3.268215304126636,3.2157525365023272,30,360,1.8230024810224534,1.7705397133981444,7.9672493678298277
134,61.709842614098037,-1.987976751217347,61.74185555213036,-1.8451400062659189,1.2379043914225896,-19.468781396920587,-19.468781396920583,-1.3061174027892306,-8.6156994669180129,3.2929390133789713,3.2435793925157723,30,360,1.8376390454735425,1.7882794246103433,7.8512208448043648
134.25,61.375880190857075,-1.5516427898762661,61.395490588070203,-1.4481853473866928,1.2298415111821637,-19.736910553646879,-19.736910553646879,-1.0564680083789062,-6.9689071113884458,3.3159624348263126,3.269573904026263,30,360,1.850479848444152,1.8040913176441022,7.7281858243785031
134.5,61.039065529643068,-1.1024483248079988,61.049020573969344,-1.0347269975368976,1.2219893232876433,-20.008197610407024,-20.00819761040702,-0.77834009649885161,-5.1342584825571116,3.3373132883069347,3.2937479595399264,30,360,1.8614807566526801,1.8179154278856717,7.5990514141259391
134.75,60.699547008902975,-0.63996715313952435,60.70292056436098,-0.60405818758196506,1.2144104122635324,-20.280244859630812,-20.280244859630812,-0.46869336936050088,-3.0916984981011773,3.3570170382817928,3.3161094762200554,30,360,1.8705987724779338,1.8296912104161964,7.4646904761031259
135,60.357540140402442,-0.16377345313139591,60.35776233049269,-0.155465325621506,1.2071791276578943,-20.549831608897343,-20.54983160889735,-0.12443979037566269,-0.82085717050659179,3.3750969101558863,3.3366623903759036,30,360,1.8777926132420177,1.8393580934620353,7.3259323930797962
135.25,60.013325486422218,0.32654996242122836,60.014213906517277,0.31175992740179098,1.2003826700948195,-20.812761131518211,-20.812761131518208,0.25737783666279179,1.6977724095832791,3.3915739643100999,3.3554067295705412,30,360,1.883023298910957,1.8468560641713982,7.1835563936144968
135.5,59.667245707249343,0.83140389357228994,59.673037820472253,0.79830820110630718,1.1941217775367308,-21.063729371691309,-21.063729371691306,0.67932381044852819,4.4811054343562535,3.4073187718472333,3.3731903128034455,30,10,1.8862547176199036,1.8521262585761156,6.9010883829635308
135.75,59.319701929310369,1.3511655439654227,59.335088146133465,1.3048396455647076,1.1885107022569337,-21.296253268802751,-21.296253268802747,1.1432124004154631,7.5411095876983749,3.443716968547426,3.4113743550014188,20,10,1.8874541633190995,1.8551115497730926,4.5064267994793843
136,58.971149370215954,1.8861819061881504,59.001306258654587,1.8319709445229484,1.1836760791861525,-21.50271232969591,-21.502712329695907,1.649659845856678,10.881849843047373,3.4829713498832282,3.4521356399568282,20,10,1.886592839016966,1.8557571290905657,4.3979235407177359
136.25,58.62209241781418,2.4367638196732866,58.672715442150924,2.3802622589800806,1.1797542587079275,-21.674566928651483,-21.67456692865148,2.1975790910967801,14.496155524181498,3.5204888080746874,3.4908535619720502,20,10,1.8836463253197857,1.8540110792171487,4.2904852813685537
136.5,58.273079116921686,3.0031807267192994,58.350414259406527,2.9502042297670479,1.1768867569534238,-21.802810354210962,-21.802810354210958,2.7836931767591242,18.362410429452897,3.5562794920152809,3.5275094175825119,20,190,1.8785949840212393,1.8498249095884705,4.1842448094904032
136.75,57.924695231443053,3.5856562218741335,58.035568819449217,3.5422052628329763,1.1752137524627606,-21.878674991327529,-21.878674991327529,3.4021882901464084,22.442264206243991,3.5903523431126554,3.562082099066501,20,10,1.8714243173317771,1.8431540732856229,4.0793155639463317
137,57.577557943107152,4.1843644148949988,57.729403983139314,4.1565792813648619,1.174866034730816,-21.894540975927402,-21.894540975927399,4.0446520423924115,26.680225201112744,3.6227153820959228,3.5945485637154082,20,10,1.8621252585314272,1.8339584401509126,3.9757933563379018
137.25,57.232309281445232,4.7994271415783025,57.433193595466385,4.7935341723759608,1.1759564062515528,-21.844902140039721,-21.844902140039721,4.7004168450654982,31.005925516221271,3.6533760176304133,3.6248843478665318,20,10,1.8506944039502007,1.8222027341863192,3.8737580023972846
137.5,56.889609439781161,5.4309120369885466,57.148249909899647,5.4531611581798174,1.1785720211105835,-21.727170154289411,-21.727170154289411,5.3573356370061074,35.33923802966342,3.6823413611099634,3.6530641074028649,20,10,1.8371341716676806,1.8078569179605821,3.7732748629308781
137.75,56.550130037683054,6.07883147479542,56.875912294905888,6.1354253401038967,1.1827692174919393,-21.542095361247764,-21.54209536124776,6.0028791854139616,39.597514654729892,3.7096185469452845,3.6790621813424011,20,190,1.821452899864922,1.7908965342620384,3.6743962818504308
138,56.214547469189696,6.7431423661407859,56.617535412059617,6.8401576618533628,1.1885719173786036,-21.293676106587149,-21.293676106587149,6.625323067261073,43.703416168303043,3.7352150440821505,3.7028531605892456,20,10,1.8036648709525174,1.7713029874596122,3.5771629298364997
138.25,55.883536453578564,7.4237467278833114,56.37447704447645,7.5670484623633243,1.1959737558913011,-20.988584589464693,-20.988584589464686,7.2147562955420241,47.591565533619672,3.7591389547249774,3.7244124542153743,20,10,1.7837902796596321,1.7490637791500292,3.4816050453844962
138.5,55.557763859177847,8.1204931184072624,56.148085751147988,8.3156429786042043,1.2049431654808676,-20.635279194171851,-20.635279194171851,7.7637144973092216,51.212724608773001,3.7813992930265483,3.743716841241119,20,190,1.7618551292717208,1.7241726774862918,3.3877435863284129
138.75,55.237882913816051,8.833178640809404,55.939688537753788,9.0853387395054419,1.2154300626358485,-20.243034738556098,-20.243034738556098,8.2673756743917615,54.535085466710051,3.8020062368565788,3.7607449977513001,20,10,1.7378910756956207,1.6966298365903418,3.2955912817030466
139,54.924527902321131,9.5615516890043484,55.750578795151121,9.8753852431352627,1.2273727463555046,-19.821089878353057,-19.821089878353057,8.7233847139789624,57.543112793266729,3.8209713512230903,3.775477992049229,20,10,1.711935221260519,1.6664418620866577,3.2051536034954999
139.25,54.618309358957745,10.305315157138681,55.58200462126895,10.684885828117258,1.2407039652875169,-19.378024758752474,-19.378024758752474,9.1314425058917799,60.234833531959261,3.8383077764704758,3.7878997378289241,20,10,1.6840298528325357,1.633621814190984,3.1164296488521144
139.5,54.319809833224475,11.06413013128919,55.435157760033221,11.512801894314071,1.2553556197087901,-18.92139220536237,-18.92139220536237,9.4928010703237167,62.618506534320218,3.8540303814810613,3.7979974005249892,20,10,1.6542221417816172,1.5981891608255452,3.029412947886962
139.75,54.029580317278402,11.837619899096842,55.311163377176683,12.357959379877846,1.2712619972830983,-18.457565584945492,-18.457565584945492,9.8097711242853496,64.709374261152661,3.8746749048687135,3.8122807761934743,10,10,1.622563812762404,1.5601696840871648,1.441451457355579
140,53.748137238964901,12.625374271605381,55.21107073908928,13.219057535044794,1.2883617183535354,-17.991741381610751,-17.991741381610748,10.085302605889305,66.526895744370663,3.9070167671829346,3.8375013218726512,10,10,1.5891107784610117,1.5195953331507286,1.4009539838074963
