mhz,zreal,zimag,zmag,zphase,vswr,s11,s11_real,s11_imag,s11_ang,gain_max,gain_net,gain_max_theta,gain_max_phi,gain_viewer,gain_viewer_net,fb_ratio
0.97999999999999998,68.544447037695235,-136.12215766138843,152.40598093938209,-63.272414798552241,7.371168474645267,-2.3713398607650045,-2.3713398607650027,-5.0472377071810381,-33.293701722604993,4.3157408914083497,0.55598253077900672,0,0,3.7640672180886758,0.0043088574593328488,0.0021441786057317586
0.98199999999999998,66.242748917234934,-120.26118693697103,137.29841538634349,-61.152971539415859,6.2871931477529355,-2.7867020936161224,-2.7867020936161224,-5.5082343630505237,-36.334629462901432,4.3158030205585938,1.0697653443476831,0,0,3.7640853112618933,0.51804763505098261,0.0021512294284102211
0.98399999999999999,64.079058029071703,-105.02751872402344,123.03213144223029,-58.611930144521139,5.316644471768325,-3.306803058174641,-3.3068030581746424,-6.0230484904181019,-39.730559869502457,4.3158652818318641,1.5831127198113677,0,0,3.7641034504833688,1.0313508884628724,0.0021582806737126393
0.98599999999999999,62.042284213350754,-90.381904849576529,109.62724914293935,-55.532510088488195,4.4556426065857915,-3.9663418475076173,-3.9663418475076151,-6.597278823653161,-43.518424547958027,4.3159276728436069,2.0887128198831415,0,360,3.7641216334178762,1.5369067804574108,0.0021653322554834923
0.98799999999999999,60.122442585984714,-76.288291256645721,97.131928248974006,-51.75852218829651,3.6998184716826348,-4.814930389071022,-4.8149303890710211,-7.2356120796008945,-47.729139052825872,4.3159901955172089,2.5767725952333751,0,0,3.7641398620395821,2.0249222617557483,0.002172384089376954
0.98999999999999999,58.310523262307171,-62.713501829722503,85.63352401291607,-47.08356048564881,3.0441708609580709,-5.926246048505984,-5.926246048505984,-7.9406510011831326,-52.379872170584321,4.3160528576747463,3.0347531026878403,0,360,3.7641581442222161,2.48285838923531,0.0021794360871393624
0.99199999999999999,56.598380467587361,-49.626967966445754,75.274249389126481,-41.245147401348845,2.4829181728631005,-7.4165216785374017,-7.4165216785374009,-8.7110920831626029,-57.462025432708359,4.3161156404833951,3.4474741988039099,0,360,3.764176461185019,2.8955350195055338,0.002186488168648598
0.99399999999999999,54.978630459400151,-37.000454779618039,66.269777886226848,-33.940436401368224,2.0093731476367584,-9.4884858894336475,-9.4884858894336457,-9.5386853250065791,-62.921178367470013,4.3161785573490974,3.7978635834235543,0,360,3.7641948263802938,3.2458798524547507,0.0021935402443075472
0.996,53.444570680008205,-24.807865877428625,58.921577919832394,-24.899754918086423,1.6158934237449509,-12.562289583348287,-12.562289583348287,-10.400967776509232,-68.609155912121878,4.3162416056272512,4.0685677324869056,0,0,3.7642132372191832,3.5165393640788376,0.0022005922289282769
0.998,51.990103494611432,-13.025034196194358,53.596850440976851,-14.064772235301479,1.2939727895751505,-17.845622571930807,-17.845622571930804,-11.223533329430882,-74.035144097163936,4.3163047862172652,4.2443908953032752,0,360,3.764231694649343,3.692317803735353,0.002207644036064636
1,50.609671618413223,-1.6295483580204018,50.635899213648294,-1.8441929213101906,1.0351903585757649,-35.243626888382401,-35.243626888382394,-10.393436653145066,-68.559477456406213,4.3163680967752169,4.3150694634228755,0,0,3.7642501963794661,3.7629515630271246,0.0022146955794262128
1.002,49.298202108929694,9.3993971673910774,50.18626702877232,10.794686798201379,1.2087228523402203,-20.491424470446894,-20.491424470446891,13.471338061786167,88.862609065421765,4.3164315342075259,4.2774742861595865,0,360,3.7642687393668717,3.7253114913189318,0.0022217467757187515
1.004,48.051054543395281,20.081154947215232,52.078370046943817,22.680678604169447,1.5049509783510147,-13.911000263909061,-13.91100026390906,12.729494228189246,83.969095275613682,4.316495104442911,4.1363339303355637,0,0,3.7642873295943002,3.584126155486953,0.0022287975331976538
1.006,46.863978231541118,30.433741687433074,55.87884294421066,32.999929807095498,1.8625861886752215,-10.41912142859003,-10.419121428590028,11.891451389588941,78.441012407745916,4.3165588161022796,3.9031510806576564,0,360,3.7643059757253727,3.3508982402807495,0.0022358477633458232
1.008,45.733074367879354,40.473944317943072,61.070895357690148,41.508950464757334,2.2871236118694958,-8.1439155720722027,-8.1439155720722027,11.081842971243825,73.100494929414779,4.3166226572522213,3.5937982259506787,0,0,3.7643246658800349,3.0415002345784923,0.0022428973845496848
1.01,44.654759922274089,50.217432478056388,67.19998592562419,48.355600488877371,2.7829233039112409,-6.5338974971302344,-6.5338974971302317,10.328084824697664,68.12838932274073,4.3166866252308767,3.2257481865506961,0,0,3.7643433974471305,2.6734049587669499,0.0022499463091288957
1.012,43.625737451112016,59.678848272697913,73.924081998419538,53.832883817923744,3.3531847683468397,-5.343021445792858,-5.3430214457928562,9.6389237831747501,63.582393376748598,4.3167507212085141,2.8157834634085797,0,360,3.7643621716555198,2.2633949138555853,0.0022569944489439376
1.014,42.642967347301017,68.871894188947678,81.004694143960478,58.235717556937239,4.0000649920572204,-4.4368997251200835,-4.4368997251200826,9.0154611162247615,59.469771528350243,4.3168149549839763,2.3785723564456345,0,0,3.7643809983392806,1.8261383998009388,0.0022640417144197647
1.016,41.70364576362352,77.809392257018516,88.280777032060413,61.809943498195942,4.7248498132605654,-3.733106624214277,-3.733106624214277,8.454877810179374,55.771928378305503,4.316879322910852,1.9260773635084871,0,0,3.7643998739150506,1.3735979145126858,0.0022710880177977547
1.018,40.805181809771241,86.503361720111499,95.644625836525378,64.745910505643096,5.5281342489369409,-3.1773956548203381,-3.1773956548203364,7.9523827241233382,52.457259546991764,4.3169438147670309,1.4675480007662891,0,0,3.7644187882045839,0.91502297420384204,0.0022781332767153294
1.02,39.945176951559546,94.96509018033575,103.02419868482698,67.186911763464252,6.4099853529640907,-2.7324252046173196,-2.732425204617321,7.5023775650311064,49.488836340148588,4.3170084443727559,1.0098317385381463,0,0,3.7644377550812704,0.45726104924666089,0.0022851773956909238
