mhz,zreal,zimag,zmag,zphase,vswr,s11,s11_real,s11_imag,s11_ang,gain_max,gain_net,gain_max_theta,gain_max_phi,gain_viewer,gain_viewer_net,fb_ratio
140,11.932325689943241,-39.45024758017918,41.215317911042646,-73.171262541533139,6.8924391742027256,-2.5383227080651274,-2.5383227080651274,-15.384328017442691,-101.4814950139379,3.2874382372514654,-0.25245729877014744,20,310,3.2874382372511644,-0.25245729877044853,1.2959199880464409
140.5,12.197498788696558,-37.70595902850939,39.629765618280949,-72.074127030465732,6.5209984653288506,-2.6851574728011913,-2.6851574728011904,-15.743050035164092,-103.84777624581946,3.2343970323571263,-0.12737207555886698,20,310,3.2343970323568239,-0.12737207555916941,1.2826065865551053
141,12.473618914364337,-35.974294647206221,38.075465121056602,-70.876676403198218,6.1709003745391895,-2.84015036779383,-2.8401503677938313,-16.111012206850678,-106.27500941771964,3.1807529339542358,-0.0066355799142940874,20,310,3.1807529339539355,-0.0066355799145942918,1.2692134100590793
141.5,12.760070209598375,-34.254378906559715,36.553821496911141,-69.569176352973258,5.8416053370807699,-3.0033726580031459,-3.0033726580031459,-16.488575649084929,-108.76557660642609,3.126812292824686,0.10957397037046279,20,310,3.1268122928243454,0.10957397037012218,1.2557128221697342
142,13.056368847551848,-32.545430684361307,35.066705375810379,-68.140644550791194,5.5324347357301482,-3.1748704046188045,-3.1748704046188045,-16.876106564591012,-111.32189343905527,3.0728044539185886,0.22106577182877274,20,310,3.0728044539182808,0.22106577182846499,1.2420711863009768
142.5,13.362083432292708,-30.846702309093118,33.616429271970006,-66.578846499849348,5.2426370041910619,-3.3546441366259439,-3.3546441366259439,-17.273994381376056,-113.94652874645364,3.0189307326357895,0.327666883932757,20,310,3.0189307326354586,0.32766688393242616,1.2282630030271415
143,13.676888995168971,-29.157496273489762,32.205851665881212,-64.87016382927284,4.9713952381464424,-3.5426541345954057,-3.5426541345954066,-17.682644921958726,-116.64215950455788,2.9653366026813059,0.42920308654207107,20,310,2.9653366026810319,0.42920308654179706,1.2142568407230379
143.5,14.000522243175231,-27.477193124951331,30.838462430988951,-62.999680390472101,4.7178714894787257,-3.7388003244248553,-3.7388003244248535,-18.102475145715914,-119.41153615270333,2.9121350286497805,0.52550820597769343,20,310,2.9121350286494478,0.52550820597736081,1.2000237111740908
144,14.332788164579377,-25.805203649070069,29.51842394066265,-60.951226090630954,4.4812169148828094,-3.9429180845788685,-3.9429180845788681,-18.533923609856501,-122.25755159860464,2.8594081955071351,0.61642798922739672,20,310,2.8594081955068935,0.61642798922715514,1.1855308759273404
144.5,14.673545556038937,-24.140978014986398,28.250659438413233,-58.707623480811058,4.2605911856896075,-4.1547640551047182,-4.1547640551047156,-18.977447695644841,-125.18322292135979,2.8072166224048041,0.70182412238276282,20,310,2.8072166224045092,0.70182412238246794,1.1707446175314054
145,15.02270078130854,-22.484054196569303,27.040973205101068,-56.25116967627244,4.0551770402156881,-4.3739997645997351,-4.3739997645997359,-19.433507052263113,-128.19158216020617,2.7555945002785638,0.78156520937707818,20,310,2.7555945002783004,0.78156520937681484,1.1556290898141137
145.5,15.380199837231761,-20.833966717845328,25.896036689684209,-53.564249660946523,3.8641825191268508,-4.6001834568424496,-4.6001834568424496,-19.902585268405314,-131.28581926946501,2.7045629407937155,0.85554191636029175,20,310,2.7045629407934464,0.85554191636002264,1.1401489192626648
146,15.746031925779729,-19.190297484388616,24.823477575613907,-50.630420793393839,3.6868486146139525,-4.8327545678916799,-4.8327545678916799,-20.385169150908148,-134.46914543167972,2.654125532817329,0.92365998014711637,20,310,2.654125532817047,0.92365998014683437,1.1242663168354969
146.5,16.120218818368116,-17.552691532016063,23.831878540521686,-47.435939834197683,3.5224555052768083,-5.0710157686560287,-5.0710157686560287,-20.881734729264053,-137.74470073750027,2.6042730780020289,0.98584209662955513,20,310,2.6042730780015457,0.98584209662907196,1.1079430812623179
147,16.502818528976867,-15.920798808380317,22.93065315461525,-43.971623298957297,3.3703202588874275,-5.3141247002800664,-5.3141247002800664,-21.392752681687618,-141.11558997829826,2.5549879922435248,1.0420343463699,20,310,2.5549879922432246,1.0420343463695998,1.0911373483046771
147.5,16.893928225941405,-14.294345719742577,22.129914831711002,-40.235337219747343,3.229800720815585,-5.5610771073103962,-5.5610771073103962,-21.918648620005449,-144.5846206686048,2.5062364016923548,1.0921954485840459,20,220,2.5062364016921412,1.0921954485838323,1.0738007845034183
148,17.293657013321727,-12.673048779153678,21.44007318675056,-36.234515118307279,3.1002968183644888,-5.810692434590619,-5.8106924345906172,-22.459812682133681,-148.15436632212456,2.4579826771942423,1.1363094123717521,20,310,2.4579826771939128,1.1363094123714226,1.0558868043352385
148.5,17.702144221355333,-11.056696947291327,20.871426817970672,-31.988754527395919,2.9812490792435047,-6.0616054301771785,-6.0616054301771776,-23.016544403108483,-151.82680279787755,2.4101826322255486,1.1743781832574496,20,310,2.4101826322246818,1.1743781832565827,1.0373470857559213
149,18.11956040671339,-9.4450924782427421,20.433507805932223,-27.53145387605726,2.872134912302247,-6.3122667655206435,-6.3122667655206435,-23.589041834780787,-155.60323652913146,2.3627818075724538,1.2064204713805897,20,310,2.3627818075721416,1.2064204713802775,1.0181276373091019
149.5,18.546101889976836,-7.8380835721450861,20.134384753384769,-22.910232359204944,2.7724687067594713,-6.5609413908092593,-6.5609413908092584,-24.177354296268977,-159.48399284552437,2.3157210613024128,1.2324745852611156,20,220,2.315721061301844,1.2324745852605468,0.998170641553215
150,18.981988570605218,-6.235541196533795,19.979936539144894,-18.185237282689478,2.6817989420376036,-6.8057198729735671,-6.8057198729735671,-24.781350823168708,-163.46820785078918,2.2689358873370762,1.2525965798862524,20,220,2.2689358873368759,1.2525965798860521,0.97741493266621515
