mhz,zreal,zimag,zmag,zphase,vswr,s11,s11_real,s11_imag,s11_ang,gain_max,gain_net,gain_max_theta,gain_max_phi,gain_viewer,gain_viewer_net,fb_ratio
142,28.721206839966232,13.969830297194008,31.938438923599925,25.938022655137953,1.9341800046086075,-9.9411237177479421,-9.9411237177479421,20.716024884384787,136.65160893798782,8.6902364986925704,8.2260702406314774,0,90,0.79136498691569701,0.32719872885460338,9.2899099470027355
142.19999999999999,28.550680406687235,15.453248086202215,32.464507205539199,28.42476619716907,1.986059180401651,-9.6239085979644976,-9.6239085979644958,20.17750958885518,133.09933566246644,8.7462738682642698,8.2448274214754544,0,90,0.74871652453699977,0.24727007774818432,9.491771514803629
142.39999999999998,28.40481541073628,16.954031817494851,33.07979343022911,30.831783704492892,2.0407275626564316,-9.3128090842575428,-9.3128090842575428,19.656645756139895,129.66349885615895,8.8005638932715335,8.2594638929500963,0,90,0.70625919593688868,0.16515919561545123,9.7014985282781261
142.59999999999997,28.285014941873069,18.470332736227526,33.781581692527972,33.144846196861693,2.0980022531296396,-9.0095699596058587,-9.0095699596058552,19.15292686733385,126.34075730743227,8.8525983617387141,8.2696231920799868,0,90,0.66435096460180632,0.081375794943078783,9.9179968865201182
142.79999999999995,28.192432484908142,20.0001105928276,34.566134772945595,35.352428935484156,2.1576808907424021,-8.7155874848373625,-8.7155874848373607,18.665876218472619,123.12796647653562,8.9018827215379499,8.2749900096619857,0,90,0.62336611789295893,-0.0035265939830056992,10.139930182360327
142.99999999999994,28.127938316824796,21.541175040693357,35.428846101572248,37.445919369441654,2.2195449118569743,-8.4319337835860946,-8.4319337835860928,18.195060575932697,120.02226857236148,8.9479500795796412,8.2752996101846215,0,90,0.58368430654070136,-0.088966162854318354,10.365716653735968
143.19999999999993,28.092095122066958,23.091237286394637,36.364420080125576,39.419638829491632,2.2833640067317735,-8.159383562300377,-8.159383562300377,17.740092223342238,117.02110605472927,8.9903744379047019,8.2703451998464583,0,90,0.54567822332736926,-0.17435101473087478,10.593535033091946
143.39999999999992,28.085139731516914,24.647952292863195,37.367052679734989,41.27068814786157,2.3489012068582622,-7.8984438547503624,-7.8984438547503597,17.300628247627426,114.12221692484698,9.0287822621213305,8.2599829664069375,0,90,0.50970249816688251,-0.25909679754751025,10.821336790664693
143.59999999999991,28.106983267383573,26.208990304767031,38.430634670642021,42.998696335877241,2.4159191519221603,-7.6493825423815833,-7.6493825423815833,16.876355622623141,111.32353633053658,9.0628618422866829,8.244134057147555,0,90,0.47607962617391009,-0.34264815896521872,11.046876173702955
143.7999999999999,28.15721598398936,27.772081285840784,39.548923005770632,44.60546180299054,2.4841860013134216,-7.4122600093863706,-7.4122600093863706,16.466982807553045,108.62314114627662,9.092369786743582,8.2227841711099856,0,90,0.4450906213818418,-0.42449499425175524,11.267747353255356
143.99999999999989,28.235057526699837,29.334886974069768,40.715526121094115,46.094458598160877,2.5534777110708,-7.1869713844994099,-7.186971384499409,16.072280406918541,106.01951818292291,9.117128842777527,8.1959775550833882,0,90,0.41696561486049388,-0.50418567283364535,11.481349074318679
144.19999999999987,28.339624122469655,30.895743547319235,41.924709477163724,47.470889573021367,2.623599141211248,-6.9732267025920001,-6.9732267025920001,15.691863237227428,103.51012660823376,9.1370575788539572,8.163829331675835,0,90,0.391884274083803,-0.5813439730943194,11.685303927566261
144.39999999999986,28.469673243624737,32.452752274781204,43.170631508087517,48.740646933776837,2.6943650613405934,-6.7706564172221286,-6.7706564172221277,15.325460579257893,101.09318064441455,9.152109997751035,8.1264781263660382,0,90,0.36995277172966934,-0.65567909965532789,11.877019049698738
144.59999999999985,28.623804569023768,34.00456529326695,44.448089371644777,49.910548719305865,2.7656287467586402,-6.578762192254711,-6.5787621922547128,14.972703305443462,98.766245370859451,9.1623242562189144,8.0841129627351567,0,90,0.35123044728875846,-0.7269808461949987,12.054144536235041
144.79999999999984,28.800356764783821,35.549378281222637,45.75170866711202,50.987311106822176,2.837240678101328,-6.3970597442870645,-6.3970597442870645,14.633360387954502,96.527796830882494,9.1677989378841112,8.0369798346051038,0,90,0.33572019648832108,-0.79509890679068607,12.214437295510525
144.99999999999983,28.997686436244365,37.086401477477573,47.077244961907034,51.978311893668611,2.9091096471560247,-6.2249395991397174,-6.2249395991397174,14.306993720664536,94.374945092298233,9.1686762775085899,7.9853200523549113,0,90,0.32336964332004586,-0.85998658183363275,12.356074888363279
145.19999999999982,29.214052232245344,38.614864334359702,48.420745506336061,52.890694671404333,2.9811619021218014,-6.061797430832697,-6.0617974308326978,13.993196751700461,92.30500836804147,9.1651414679971346,7.9294002179776522,0,90,0.31408383869933942,-0.92165741132014301,12.477579338366207
145.39999999999981,29.447697388068381,40.134259057920204,49.778766874918659,53.731397334525411,3.0533498508861463,-5.9070227795469998,-5.9070227795469989,13.691536587920583,90.315131112965872,9.1574116307995492,7.8694954276947691,0,90,0.30773177519731437,-0.98018442790746563,12.577913804046553
145.5999999999998,29.696888716303889,41.644327527597682,51.148364730989861,54.507041647268885,3.1256498462559485,-5.7600127982582583,-5.7600127982582556,13.401557715601992,88.402308567061922,9.1457269167139081,7.805882759912051,0,90,0.30415478317745337,-1.0356893736244035,12.656516729865206
145.79999999999978,29.959957486525408,43.145047062466887,52.527080050359665,55.223853668132328,3.198059073928444,-5.6201837087479687,-5.6201837087479696,13.122785151095194,86.563407538499348,9.1303421822171202,7.7388360011473356,0,90,0.30317452383678234,-1.0883316572330024,12.713309778485701
145.99999999999977,30.235302855652474,44.636588190524101,53.912879203984851,55.887626346363639,3.2705932732085068,-5.4869772951292326,-5.4869772951292326,12.854735858876644,84.795241721901789,9.111520249691095,7.6686213217692583,0,90,0.3046019285023836,-1.1382969994194529,12.748672232139826
146.19999999999976,30.521451009515062,46.119318516184265,55.304163605676969,56.503680285446109,3.3432821490096334,-5.3598691776203697,-5.3598691776203715,12.596914875082,83.094546127542372,9.089524691124895,7.5954940393934756,0,90,0.30824199418349207,-1.1857886575479273,12.763401772820856
146.39999999999975,30.817047207926294,47.593755557700852,56.699699881937107,57.076866317942425,3.4161668862146417,-5.2383709792193676,-5.2383709792193658,12.348826984604568,81.458054108394123,9.0646153044331488,7.5196964651799041,0,90,0.31390085218019892,-1.2310179870730455,12.758644994688005
146.59999999999974,31.120872561379677,49.060544752783926,58.098586561305851,57.61157055982283,3.4892968569090845,-5.1220326705480588,-5.122032670548057,12.109980110071142,79.882519715239155,9.0370438870164307,7.4414565070782706,0,90,0.32138997970379174,-1.2741974002343683,12.735821739025887
146.79999999999973,31.431849775055134,50.52043316013107,59.500212999357444,58.11173164594689,3.5627267882398432,-5.0104431159894292,-5.0104431159894292,11.879889794865999,78.364747268579663,9.0070511918160427,7.3609870095305334,0,90,0.33052963556591997,-1.3155345467195896,12.696543969807266
146.99999999999972,31.748869744967848,51.974054443345352,60.903965924747148,58.580911948595329,3.6365165154998373,-4.9032262988808251,-4.9032262988808242,11.658125014921815,76.901893552469559,8.9748726397394645,7.2784919739320451,0,90,0.34114278638320217,-1.3552378794242168,12.642468539170228
147.1999999999997,32.071482645155641,53.422673429265515,62.310208115432182,59.022146448919685,3.7107207219932676,-4.8000516369755788,-4.8000516369755779,11.444142115948665,75.49037239466594,8.9407061587688101,7.1941416154207598,0,90,0.35309049318880298,-1.3934740501592473,12.575504734786893
147.39999999999969,32.398862229711831,54.867007069751622,63.718715763675135,59.438230874192172,3.7853980461072876,-4.7006160264042771,-4.7006160264042753,11.237543537305738,74.127561318051605,8.9047569603593235,7.1081110512433314,0,90,0.36622191841646273,-1.4304239906995295,12.49733096055261
147.59999999999968,32.73056733018602,56.308264759535056,65.129952540944927,59.831648384695619,3.8606157977483875,-4.6046352276078188,-4.6046352276078171,11.03786716285031,72.810412010280416,8.8671992724555881,7.0205391389889771,0,90,0.38041341197947692,-1.4662467214871344,12.409648420707711
147.79999999999967,33.06601725113233,57.74681813681093,66.543643586582306,60.204406291014926,3.9363998181927973,-4.5119027827288072,-4.5119027827288081,10.844793210460503,71.536815054043359,8.8282169876223744,6.9316023787365424,0,90,0.39553867209218546,-1.501075936793647,12.314014940084313
147.99999999999966,33.404995878825396,59.183870145443336,67.960460821399977,60.558428155185339,4.0128097994512499,-4.4221902254755268,-4.4221902254755259,10.657900346650294,70.303991156542423,8.7879555019874989,6.8414166384232242,0,90,0.41150017926220717,-1.5350386843020671,12.21191440501816
