mhz,zreal,zimag,zmag,zphase,vswr,s11,s11_real,s11_imag,s11_ang,gain_max,gain_net,gain_max_theta,gain_max_phi,gain_viewer,gain_viewer_net,fb_ratio
120,14.214201668378948,29.771755345646067,32.990922167019704,64.478363660059884,4.842532699136469,-3.639671595262683,-3.6396715952626844,17.489412571230623,115.3675176862924,1.4252259742054454,-1.0354715269156767,0,0,1.0556511781130069,-1.4050463230081152,0.0023265969464968555
120.5,14.631892497983131,30.731402950219852,34.036912394653491,64.539860100768266,4.792057115848614,-3.6791593154111659,-3.6791593154111659,17.218771213815728,113.58225351798261,1.4227880693000419,-1.0080488766782074,0,0,1.0541815126745777,-1.3766554333036716,0.0023767242720726797
121,15.064433182287003,31.700457849411467,35.09780869179589,64.58237914793871,4.7437208580856494,-3.7177973229902639,-3.7177973229902621,16.949096397100497,111.80336505845139,1.4203453063257281,-0.98173003288031468,0,0,1.0527021134626362,-1.3493732257434066,0.002426408394168461
121.5,15.512452544357801,32.679086633869346,36.174008447570351,64.606751378703478,4.6974428451177443,-3.755570155103864,-3.755570155103864,16.680450155797232,110.03126151473991,1.4178977817287099,-0.95648680204942571,0,360,1.051212952196229,-1.3231716315819066,0.0024756824361943158
122,15.976609528765646,33.667450141635896,37.265926140030174,64.61370969911907,4.6531447704693152,-3.7924644834242867,-3.7924644834242849,16.412892887120268,108.2663412922642,1.4154455907332975,-0.93229099673821558,0,360,1.0497139949421277,-1.2980225925293853,0.002524577020989939
122.5,16.457594724465153,34.665702442603511,38.373993145799545,64.603899274804661,4.6107509987602304,-3.828469107885621,-3.8284691078856192,16.146483248629391,106.50899132094766,1.4129888275642104,-0.9091144779954452,0,0,1.0482052032566072,-1.2738981023030485,0.0025731202491045329
123,16.95613195717138,35.673989702087184,39.498657600146757,64.577886126220577,4.5701884668329287,-3.8635749406029656,-3.8635749406029656,15.881278064379739,104.75958643614624,1.410527585114985,-0.88692919627658551,0,0,1.0466865345429532,-1.2507702468486173,0.0026213377447307515
123.5,17.4729799496406,36.692448942250778,40.640384320281996,64.536164604116777,4.5313865922798975,-3.8977749775233845,-3.8977749775233845,15.617332233275064,103.01848877410802,1.4080619579013254,-0.86570722891733443,0,360,1.045157945574954,-1.2286112412437058,0.0026692527208381127
124,18.008934102636559,37.721206691612387,41.799654804608721,64.479163840772827,4.4942771770357606,-3.9310642689554278,-3.9310642689554269,15.354698636264645,101.28604715980501,1.4055920357896952,-0.84542081923095225,0,360,1.0436193866498407,-1.2073934683708067,0.0027168860918365652
124.5,18.564828163051541,38.760377183980893,42.976966902843415,64.407253416689343,4.4587943329052067,-3.9634398656203809,-3.9634398656203809,15.093428129132406,99.562597059367221,1.4031179161830791,-0.82604240604643087,0,0,1.0420708145461479,-1.1870895076833621,0.002764256406837559
125,19.141536360927905,39.810061104700821,44.17283531104539,64.320748231692008,4.4248743808534092,-3.9949007837868855,-3.9949007837868851,14.833569360583462,97.848459380105027,1.4006396846249372,-0.80754466429952121,0,0,1.0405121715405199,-1.1676721773839385,0.002811380674040344
125.5,19.739975162117169,40.870343337566169,45.387791132985775,64.219912829851239,4.3924557900714838,-4.0254479304299542,-4.0254479304299542,14.57516880917273,96.143940714105725,1.3981574341580121,-0.78990052698232383,0,0,1.0389434077842423,-1.1491145533560936,0.0028582734125607262
126,20.361105400091326,41.941291012078665,46.622382016296619,64.104965094114803,4.3614790927447684,-4.0550840469528922,-4.0550840469528922,14.318270697560411,94.449332772626775,1.3956712545385062,-0.77308321808264702,0,0,1.037364468753778,-1.1313900038673752,0.00290494749258545
126.5,21.005934353809241,43.02295117885393,47.87717207829418,63.976079524557576,4.3318868173348282,-4.0838136329856436,-4.0838136329856436,14.062916957784351,92.764912157017562,1.3931812376219579,-0.75706627667921067,0,360,1.035775301244755,-1.1144722130564135,0.0029514140646765196
127,21.675517951630965,44.11534826277898,49.152741844354445,63.833390042452358,4.3036234145959105,-4.1116428748629099,-4.111642874862909,13.809147196403895,91.090940128793761,1.3906874727161429,-0.74182358256630065,0,360,1.0341758487938384,-1.0983352064886052,0.0029976826739599263
127.5,22.370962999927542,45.218481255752046,50.449688132048216,63.676992473053836,4.276635194813764,-4.1385795617844447,-4.1385795617844447,13.556998670791833,89.427662453248871,1.3881900496398929,-0.72732937730648528,0,0,1.0325660548037849,-1.0829533721425932,0.0030437613608703933
128,23.0934294870864,46.332320613628703,51.768623884734609,63.506946681803072,4.2508702636920193,-4.1646330022486993,-4.1646330022487001,13.306506273577607,87.775309296835189,1.3856890576313916,-0.71355828487430739,0,0,1.030945861499641,-1.068301481006058,0.00308965675571729
128.5,23.84413292230008,47.456804835987782,53.110177932834567,63.323278440529343,4.2262784633476791,-4.189813935065887,-4.189813935065887,13.057702526611132,86.134095187346617,1.3831845873764126,-0.70048532880285586,0,0,1.0293152119840792,-1.0543547041951893,0.0031353741671562158
129,24.624346755104177,48.591836729469883,54.4749947210559,63.125981015802211,4.2028113116922956,-4.2141344423050349,-4.2141344423050322,12.810617574631033,84.504218972151634,1.3806767279813805,-0.68808594990839533,0,0,1.0276740472269326,-1.0410886306628433,0.0031809176691286137
129.5,25.435404778285278,49.737279256789996,55.86373388973503,62.915016560430281,4.1804219484953613,-4.2376078563260879,-4.2376078563260879,12.565279196665882,82.885863893400725,1.3781655689253918,-0.67633601994575931,0,360,1.0260223080324109,-1.0284792808387402,0.0032262901724418682
130,26.278703858077407,50.892951358635685,57.277070232799005,62.690317201682156,4.1590650720139388,-4.2602486782291624,-4.2602486782291633,12.321712741225841,81.279197160523196,1.3756511952490897,-0.66521185283139639,0,0,1.0243599196187207,-1.0165031284617654,0.0032714931959992519
130.5,27.155705180527516,52.05862148672346,58.715691215804263,62.451786426675504,4.1386969278828865,-4.2820724426902403,-4.2820724426902403,12.079941465119816,79.684372185207479,1.3731337059291291,-0.65469022304595015,0,0,1.0226868524465551,-1.0051370765285241,0.0033165281350288028
131,28.067938409876582,53.23400432987637,60.180298965474748,62.199299369638524,4.1192751982550897,-4.3030956911424294,-4.3030956911424258,11.839986082514722,78.101525606806575,1.370613186057676,-0.64474836361867283,0,360,1.0210030307008906,-0.99435851897545824,0.0033613945157457154
131.5,29.017002853291647,54.418753321774183,61.671607467975441,61.932703903513939,4.1007589965301614,-4.3233358359447438,-4.3233358359447429,11.601865120639909,76.530779638713923,1.3680897255795501,-0.63536398222893409,0,0,1.019308393495278,-0.98414531431320618,0.003406091248975552
132,30.004570011922389,55.612454435648225,63.190341904102738,61.651821135453339,4.0831088108391747,-4.3428110819703205,-4.3428110819703196,11.365594875613382,74.972241776974599,1.3655634144940554,-0.62651526553465753,0,0,1.0176028794398209,-0.97447580058889205,0.0034506163813361906
132.5,31.032385686312743,56.81461895853483,64.737237265638498,61.356445896656481,4.0662864606103808,-4.361540337964561,-4.3615403379645628,11.131189459975504,73.426005113837618,1.3630343430785397,-0.61818088435947782,0,0,1.0158864268499932,-0.96532880058802428,0.0034949671405520772
133,32.102271921396976,58.02467561055056,66.313036744104352,61.046347133121024,4.0502550541711315,-4.3795431307281083,-4.3795431307281083,10.898660850911511,71.892148655851869,1.3605026017417137,-0.61033999757638857,0,0,1.0141589736018393,-0.95668362571626298,0.0035391399737072461
133.5,33.216128694974692,59.241961911558114,67.918489799255866,60.721268223678386,4.034978948308467,-4.396839521377097,-4.3968395213770961,10.668018947781128,70.370737703355687,1.3579682811758342,-0.60297225474327876,0,0,1.0124204572621824,-0.94852007865693055,0.0035831305877838805
134,34.375935348316851,60.465714814412834,69.554349965257842,60.380927220337476,4.0204237088858878,-4.4134500249068083,-4.4134500249068074,10.439271624475406,68.861824195844548,1.3554314723005199,-0.59605779754193722,0,0,1.0106708150162234,-0.94081845482623372,0.0036269339830803755
134.5,35.583751519511424,61.69506050332383,71.221372232716206,60.025017123002755,4.0065560840734156,-4.4293955199249346,-4.4293955199249337,10.212424796349385,67.365447153487054,1.3528922782381283,-0.58957725542332495,0,360,1.0089099956463552,-0.93355953801509806,0.0036705444695832833
135,36.841718061742917,62.929003077300791,72.920310051753674,59.653205709445295,3.9933439239517976,-4.4446972250366894,-4.4446972250366903,9.9874824733081873,65.881633027303124,1.3503507664940666,-0.58351176429896445,0,0,1.0071379116603483,-0.92672461913268278,0.0037139557509487
135.5,38.15205652875882,64.166412744504555,74.651911843379636,59.265136134898448,3.9807562111828663,-4.4593765523693145,-4.4593765523693127,9.7644468435169145,64.410396251349624,1.3478070408181797,-0.5778429360652797,0,0,1.0053545111906961,-0.92029546569276333,0.003757160868626049
136,39.51706885837639,65.406012577100611,76.416917056326639,58.860426717737504,3.9687629834957456,-4.4734550904149479,-4.4734550904149479,9.5433183278959817,62.951739602194564,1.3452611939118406,-0.5725528752992004,0,360,1.0035597306586206,-0.91425433855242044,0.0038001522793240962
136.5,40.939135813244469,66.64636439214712,78.216051599567024,58.438671104131082,3.9573353095026849,-4.4869545308163765,-4.4869545308163783,9.3240956537918827,61.505654684880412,1.3427133170389212,-0.56762417218473882,0,0,1.001753504373758,-0.90858398484990199,0.0038429218642587748
137,42.420714483913351,67.885853502993655,80.05002263057527,57.999438408552336,3.9464452599013113,-4.4998966053395275,-4.4998966053395257,9.1067759294033692,60.072122423870482,1.340163503205166,-0.56303989746512184,0,0,0.99993576771081161,-0.90326763295947621,0.0038854609476452937
137.5,43.964334714234212,69.122672327327948,81.919512672722661,57.542273340284162,3.9360658749814048,-4.5123030322237661,-4.5123030322237661,8.8913547132221211,58.651113521108677,1.3376118455731376,-0.55878359841120884,0,0,0.99810645550114185,-0.8982889884832046,0.0039277603139620896
138,45.572594180947938,70.354802830423907,83.825172959494651,57.066696384325411,3.9261711346773436,-4.5241954645642943,-4.5241954645642943,8.6778260835795038,57.242588914779304,1.3350584377346899,-0.55483929334753723,0,0,0.99626550229813171,-0.89363222878409543,0.0039698102260089518
138.5,47.24815183435318,71.579997718811939,85.767615830144265,56.572204068262224,3.91673593001387,-4.5355954419662856,-4.5355954419662847,8.4661827179975866,55.846500302739656,1.332503373248817,-0.55119146666456165,0,0,0.994412841905703,-0.8892819980076756,0.0040116004386742295
139,48.993719597717252,72.795760507786881,87.74740627464044,56.058269292942597,3.9077360351181252,-4.5465243463582059,-4.5465243463582068,8.2564159612051427,54.462790591182113,1.3299467464724972,-0.54782506182772672,0,0,0.992548408194738,-0.88522340010548595,0.0040531202124336977
139.5,50.812051950678111,73.999324398248319,89.765052413707195,55.524341774378193,3.8991480798255349,-4.55700336182759,-4.55700336182759,8.0485158960430887,53.09139436235629,1.3273886519075082,-0.54472547525302417,0,360,0.99067213444175894,-0.88144199271877344,0.0040943583251802701
140,52.705933041782494,75.187629995749148,91.820994778876894,54.969848635687129,3.8909495230981324,-4.5670534380872922,-4.5670534380872914,7.8424714205783772,51.73223838324467,1.3248291844686901,-0.5418785488583866,0,0,0.98878395358046201,-0.87792377974661473,0.0041353030858818146
140.5,54.678161157131839,76.357302103409765,93.915594509307482,54.394195137741853,3.8831186282008883,-4.5766952562576915,-4.5766952562576915,7.6382703103596672,50.385242016227181,1.3222684396282913,-0.53927056302848797,0,0,0.98688379834651607,-0.87465520431026322,0.0041759423410196363
141,56.731529967089337,77.504625533180203,96.049120097194248,53.796765619837096,3.8756344372023053,-4.5859491997868416,-4.5859491997868389,7.4358992922165568,49.050317705891956,1.3197065130791865,-0.53688822880921916,0,360,0.98497160091487845,-0.87162314097352722,0.0042162634868331212
141.5,58.868805954042962,78.625520099554933,98.221732449495519,53.176924757289186,3.8684767482322804,-4.5948353261238859,-4.594835326123885,7.235344140950045,47.727371616846256,1.3171435017930828,-0.53471867978044529,0,360,0.9830472957298908,-0.86881488584363731,0.0042562540106681358
142,61.092703514206029,79.715516019648561,100.43347010311616,52.534018611223651,3.8616260884678919,-4.6033733476799688,-4.6033733476799661,7.0365896231705349,46.416303263248331,1.3145795008473693,-0.53274946464386663,0,0,0.98111080923553162,-0.86621815625570431,0.0042958993655339041
142.5,63.40585234681771,80.769727452313205,102.68422948314608,51.867376925055034,3.8550636966096543,-4.6115826048147444,-4.6115826048147444,6.8396197483392722,45.117007164782308,1.3120146081029451,-0.53096853759552287,0,0,0.97916207518659104,-0.86382107051187695,0.0043351861716015277
143,65.810763280447262,81.782828164318971,104.97374693755383,51.176314823732163,3.8487714980475873,-4.6194820515125734,-4.6194820515125725,6.6444177025976225,43.829372410168268,1.3094489211264198,-0.52936425103170159,0,360,0.97720102445450907,-0.86161214770361227,0.0043741000963505349
143.5,68.309787028405168,82.749027088577407,107.30157728557482,50.460135385140497,3.8427320837409877,-4.6270902399095872,-4.6270902399095872,6.4509659441871401,42.553283286593135,1.3068825379244458,-0.52792534635201172,0,360,0.9752275875284564,-0.85958029674800107,0.0044126263911568753
144,70.905067471643463,83.662045596973741,109.66707102238313,49.718132555733021,3.8369286895564025,-4.6344253075130766,-4.6344253075130739,6.2592462609149289,41.288619658776341,1.3043155566895617,-0.52664094555255225,0,0,0.97324169426155083,-0.8577148079805631,0.0044507498961009022
144.5,73.598488655001503,84.515097068124717,112.06934980062536,48.949594565752342,3.8313451767515829,-4.6415049660640815,-4.6415049660640832,6.0692398253515094,40.035257333078178,1.3017480762154123,-0.52550054244762312,0,360,0.9712432742683258,-0.85600534439470966,0.0044884550450148596
145,76.39161498492372,85.300869614820144,114.50728010501939,48.153807914669592,3.8259660116043701,-4.6483464943991279,-4.6483464943991262,5.8809272559628276,38.793068460752252,1.2991801960911915,-0.52449399311881106,0,0,0.96923225711806693,-0.85444193209193564,0.0045257258694905269
145.5,79.285624641205487,86.011513256019612,116.9794455762916,47.330061911520723,3.8207762474538312,-4.6549667310009095,-4.6549667310009086,5.6942886586417432,37.561921811904568,1.2966120159946963,-0.52361150847559745,0,0,0.96720857161703577,-0.85301495285325801,0.0045625460021957737
146,82.281235512892351,86.63863257259905,119.4841176540961,46.477653929774078,3.8157615056610159,-4.6613820704926621,-4.6613820704926621,5.5093036839110008,36.341683152828466,1.2940436361690557,-0.52284364455562993,0,0,0.965172146277815,-0.85171513444687064,0.0045988986812792359
146.5,85.378623950815651,87.173286485155458,122.01922514242492,45.595895349274258,3.8109079579733058,-4.6676084607614543,-4.6676084607614534,5.3259515728444642,35.1322155489203,1.291475157309351,-0.52218129401779079,0,360,0.96312290919779153,-0.85053354212935028,0.004634766752873898
147,88.577336354657234,87.605996728754164,124.5823228974503,44.684118261245267,3.8062023095212876,-4.6736614015206683,-4.6736614015206666,5.1442112010866792,33.933379655051034,1.2889066805265139,-0.52161567767717654,0,0,0.96106078801860739,-0.84946157018508306,0.0046701326736609027
147.5,91.876193840295954,87.926766780488705,127.17055992268843,43.741683007587326,3.8016317809361406,-4.6795559461072127,-4.6795559461072136,4.9640611290441941,32.74503404664928,1.2863383076979875,-0.52113833479063421,0,360,0.95898571026134705,-0.84849093222727467,0.0047049785139568756
148,95.273191119019458,88.125113361608371,129.78064782931827,42.767986503721787,3.7971840936510262,-4.6853067011362839,-4.685306701136283,4.7854796335245018,31.56703542840507,1.2837701409120459,-0.52074111611641549,0,360,0.95689760277536529,-0.84761365425309609,0.0047392859593827254
148.5,98.765390132704439,88.190112368929718,132.40882979510755,41.762471477399593,3.792847453137365,-4.6909278306221269,-4.6909278306221243,4.6084447536510194,30.399238937144325,1.2812022831909209,-0.52041617408905005,0,0,0.95479639244579495,-0.84682206483417599,0.0047730363123267049
149,102.34881045815003,88.110461491011463,135.05085126113548,40.724636519724143,3.7886105327448969,-4.6964330610151901,-4.6964330610151901,4.4329343241872703,29.241498361649221,1.2786348366418963,-0.52015595575623075,0,360,0.95268200433761407,-0.84610878806051293,0.0048062104959296342
149.5,106.01831821204917,87.87456168088049,137.70193312774583,39.654047057920366,3.7844624617636597,-4.7018356823046172,-4.7018356823046181,4.2589260150099131,28.093666403038849,1.2760679064691165,-0.51995319248087313,0,0,0.95055436570655649,-0.84546673324343313,0.0048387890518178473
150,109.76751650073774,87.470619205340185,140.35674869027625,38.550347010460413,3.7803928074674054,-4.7071485583678676,-4.7071485583678676,4.0863973576801502,26.95559485004539,1.2735015959508547,-0.51980089448681799,0,0,0.94841340096499249,-0.84488908947268015,0.0048707521452140455
150.5,113.58864011811264,86.886770302192176,143.00940534604013,37.413271305667287,3.7763915622601325,-4.7123841320204729,-4.7123841320204711,3.9153257865264379,25.827134850012982,1.2709360101618676,-0.51969233990520736,0,360,0.94625903539500156,-0.84436931467207343,0.0049020795644411702
151,117.47245923976006,86.111229615341699,145.65343300349357,36.242658886106291,3.7724491313861575,-4.7175544305179331,-4.7175544305179331,3.7456886570221526,24.708137030124487,1.2683712542967749,-0.51962106945465436,0,0,0.9440911934722479,-0.84390113027918134,0.0049327507211238842
151.5,121.40819579425703,85.132463215799618,148.2817800648688,35.03846630235244,3.7685563214130968,-4.7226710711301028,-4.7226710711301019,3.5774632829094113,23.598451742285842,1.2658074380034079,-0.51958087550023802,0,360,0.94190980319337392,-0.84347851031027199,0.0049627446458167706
152,125.38345858658913,83.939385556872196,150.88681895646204,33.800781282498413,3.7647043156227928,-4.7277452849697106,-4.7277452849697097,3.4106269461851739,22.497929128998589,1.2632446596094926,-0.51956580234036842,0,360,0.93971478027090893,-0.8430956816789521,0.0049920400158409454
152.5,129.3842016580883,82.521580965479373,153.46036284247157,32.52983682163277,3.7608846798883717,-4.7327879016638894,-4.7327879016638885,3.2451569428294365,21.406419425002241,1.2606830298071605,-0.51957012732376162,0,0,0.93750605185018099,-0.84274710528074115,0.0050206151140032296
153,133.39471314302614,80.869545165358247,155.99369483976636,31.226024483478987,3.7570893385899544,-4.7378093742391201,-4.7378093742391201,3.0810305910225639,20.323773011479293,1.2581226559958751,-0.51958836117116114,0,360,0.93528354082382759,-0.84242747634320869,0.0050484478566986462
153.5,137.39763971942332,78.974944803779735,158.4776113753249,29.889907295354305,3.753310566009687,-4.7428197844378674,-4.7428197844378692,2.9182252529083823,19.249840559613698,1.25556364553129,-0.51961523965834644,0,0,0.93304716907433571,-0.84213171611530069,0.0050755157885703402
154,141.37405237906503,76.830889267677421,160.90248050213748,28.522231666286999,3.7495409740198586,-4.747828853611491,-4.7478288536114901,2.7567183640661916,18.184473225000676,1.2530061076860912,-0.51964571402923299,0,0,0.93079685943646617,-0.84185496227885803,0.0051017960815799932
154.5,145.30355966685784,74.432207726341176,163.2583167831805,27.123937635302614,3.7457735028786194,-4.7528459501195783,-4.7528459501195766,2.5964874318641069,17.127522636784636,1.2504501508467478,-0.51967494818634918,0,360,0.92853253286427073,-0.84159256616882627,0.0051272655363954877
