mhz,zreal,zimag,zmag,zphase,vswr,s11,s11_real,s11_imag,s11_ang,gain_max,gain_net,gain_max_theta,gain_max_phi,gain_viewer,gain_viewer_net,fb_ratio
120,28.119137656913189,-29.014513091954765,40.404552621352558,-45.897842750654249,2.5466221264806399,-7.208614002993742,-7.2086140029937429,-16.167184328168538,-106.6455443441056,4.1388274960774485,3.2227741069837332,0,90,3.7715596793762081,2.8555062902824928,1.9575847571031287e-13
121,28.280532767887063,-27.12142013653169,39.183669606837498,-43.801439825618445,2.4447713987502593,-7.5472254207967922,-7.5472254207967904,-16.611915942388819,-109.57918103203018,4.1304304313429121,3.290204773318032,0,180,3.7670677732191971,2.9268421151943169,8.6018010016544686e-13
122,28.469534429631818,-25.282033447951839,38.074868429232254,-41.606299419950048,2.3489623703074822,-7.8982086533081564,-7.8982086533081555,-17.063756787303589,-112.55971319426197,4.1219433781700756,3.3530985323318339,0,180,3.7625432480164012,2.9936984021781594,3.4426490555950987e-13
123,28.685587772864142,-23.492672863990236,37.077872433152848,-39.316491684434041,2.2588384063021922,-8.2618568295192159,-8.2618568295192123,-17.523607038781137,-115.59307876925277,4.1133644085298933,3.4115594358172072,0,180,3.7579848025721874,3.0561798298595013,3.2208537382878596e-13
124,28.928265442935587,-21.749979689249528,36.192625740884125,-36.938008812166267,2.1740703376593449,-8.6384486116871262,-8.6384486116871262,-17.992510028148004,-118.68616000903801,4.1046915505629729,3.4656964402985682,0,180,3.7533911047422541,3.1143959944778494,6.1524092366095356e-13
125,29.197256665716761,-20.050886068148145,35.4191731823542,-34.478892977714281,2.0943552658011368,-9.0282368397997335,-9.0282368397997317,-18.471673536302745,-121.84692394416301,4.0959228036696125,3.5156227676829692,0,180,3.7487608068033804,3.1684607708167372,6.7599355405380161e-13
126,29.492358057090943,-18.392588279406883,34.757538569113791,-31.949278742354203,2.0194155728473353,-9.4314325385670799,-9.4314325385670763,-18.962494065082129,-125.08458248781797,4.0870561407826553,3.5614552518567586,0,0,3.7440925479698288,3.2184916590439321,2.8640525756631681e-13
127,29.813465881281619,-16.772523557338854,34.207605796603623,-29.361328685835385,1.9489981565321925,-9.8481826454778609,-9.8481826454778609,-19.466584189945543,-128.40977286564282,4.0780895028641266,3.6033136781863986,0,270,3.7393849491191009,3.2646091244413729,3.4812221542572268e-13
128,30.160569527838394,-15.188349890066851,33.769008374938515,-26.729048014142176,1.8828739014617102,-10.278539352785321,-10.278539352785319,-19.985802929316613,-131.83475794467176,4.0690207972932084,3.6413201374219701,0,90,3.7346366113658602,3.3069359514946219,7.3385320204698947e-13
129,30.533745907540556,-13.637928362761155,33.44103361402059,-24.067975306350448,1.8208374103740859,-10.722418262156211,-10.722418262156211,-20.522288650671825,-135.37364329572713,4.059847905250483,3.67559840196959,0,270,3.729846123857075,3.345596620576182,1.8032923624546091e-13
130,30.933155011194025,-12.119308034665259,33.222548159129211,-21.39476082069141,1.7627070019369822,-11.179541899880119,-11.179541899880119,-21.078493044457865,-139.04260129966019,4.0505686657561863,3.7062733077482655,0,360,3.7250120478268887,3.3807166898189678,1.4947075731575694e-13
131,31.359035940880371,-10.630712680170353,33.111949311838494,-18.726658039952039,1.7083250137319743,-11.6493640426248,-11.649364042624796,-21.657213907659674,-142.86008740154836,4.0411808889458642,3.7334701852586654,0,270,3.7201329302914194,3.4124222266042206,8.6789471989795746e-15
132,31.811703834066449,-9.1705295166226115,33.107145942252473,-16.080966628697698,1.6575584022320207,-12.130969715822179,-12.130969715822177,-22.261622023944945,-146.84701742342807,4.0316823442009628,3.7573143035610621,0,270,3.7152072923847674,3.4408392517448667,1.774362538458012e-13
133,32.291547271670609,-7.7372995527063262,33.205569255274739,-13.474472017841267,1.6102996455124319,-12.622944933932791,-12.622944933932789,-22.895274770413362,-151.02685732013302,4.0220707630309889,3.7779303616357112,0,270,3.7102336325363536,3.4660932311410759,9.1611109322561308e-14
134,32.799026256730123,-6.329709497226907,33.404211496590612,-10.922927411768907,1.5664678988757761,-13.123210652427947,-13.123210652427943,-23.562104455051145,-155.42554624824152,4.0123438318678675,3.7954420092866665,0,270,3.7052104195411015,3.4883085969599006,4.0598186341891488e-13
135,33.334670280681031,-4.9465849593269038,33.699687616972923,-8.4406175652801512,1.5260103115000645,-13.628817225162337,-13.628817225162335,-24.266363486236116,-160.07113488108183,4.0024992260431098,3.8099714402145497,0,0,3.7001361267978785,3.5076083409693184,2.314385919727883e-14
136,33.899077638618124,-3.5868851623766074,34.088314858865296,-6.0400322830603166,1.4889032348301812,-14.135702027480692,-14.13570202748069,-25.012500288496639,-164.99296689691425,3.9925345388259466,3.8216389437108216,0,360,3.6950091616780201,3.5241135665628951,1.3500584531745808e-13
137,34.492913956739258,-2.2496986572105824,34.566201082492029,-3.7316629548667133,1.4551530237569956,-14.638422671320921,-14.638422671320919,-25.804932683780027,-170.22018410650944,3.9824473413740238,3.830562598992338,0,270,3.6898279257692135,3.5379431833875277,6.4609940259069759e-14
138,35.116911723627993,-0.93424026878737365,35.129336655919154,-1.523921065224646,1.4247957355997882,-15.129900224847113,-15.129900224847113,-26.647679208991356,-175.77929446864428,3.9722351565964589,3.8368579444084405,0,90,3.6845907890443268,3.5492135768563084,9.643274665532764e-14
139,35.771869778679481,0.36015089392603222,35.773682730873517,0.57683395237576085,1.3978948827678308,-15.601235741201499,-15.601235741201499,27.031240300941633,178.309424676227,3.9618954613571815,3.8406377077555858,0,270,3.6792960923830389,3.5580383387814432,1.4079181011677763e-13
140,36.458653034685085,1.6340122812361646,36.495251434108283,2.5661781135761941,1.3745360964081086,-16.041701922470327,-16.041701922470327,26.08031995097371,172.03675429085106,3.9514256757845501,3.8420115639909058,0,180,3.6739421372238921,3.5645280254302478,3.7608771195578034e-14
141,37.178192171175894,2.8877578789492655,37.290174559584969,4.4414423277542978,1.3548175478332394,-16.439043466706622,-16.439043466706622,25.075763010906272,165.41027440891622,3.9408231768808974,3.8410859515216322,0,360,3.6685271995164537,3.5687899741571885,8.1967834657028644e-14
142,37.93148350478279,4.1216770181492359,38.154759366500379,6.2014917585444156,1.338835394364766,-16.780217751880066,-16.780217751880063,24.022131263996684,158.46007647051411,3.930085288214487,3.8379639021953116,0,360,3.6630495197403459,3.5709281337211705,3.5390818022504195e-13
143,38.719588879908414,5.3359322523739605,39.085531031713664,7.8464871421981375,1.3266646958870516,-17.052631983434711,-17.052631983434711,22.928007397650248,151.2427754898423,3.919209272001889,3.8327449065478074,0,360,3.6575072953891379,3.5710429299350563,2.9604853223184904e-13
144,39.543635321404601,6.5305561635818581,40.079262196776206,9.3776454008820433,1.3183381227753594,-17.245762517617077,-17.245762517617077,21.806030458605168,143.84174393250922,3.9081923402590011,3.8255248260429644,0,270,3.6518986924613301,3.5692311782452935,1.2825555305158531e-13
145,40.404814398760145,7.7054473928134026,41.132990969800261,10.797012836556078,1.3138267424005947,-17.352817748720383,-17.35281774872038,20.672116635080915,136.3619716670099,3.8970316755996555,3.816395840137965,0,270,3.6462218665597761,3.5655860310980856,1.1186198612017985e-13
146,41.304382343644193,8.8603649458163414,42.244029965937166,12.107257650065671,1.3130280036323698,-17.371953985913589,-17.371953985913589,19.543872809836401,128.91960109377183,3.8857243526066192,3.8054463366432372,0,270,3.6404748848416117,3.5601968688782297,2.4590350397108126e-13
147,42.243658512021092,9.9949222305667185,43.40996607779519,13.311489008311721,1.315764894570264,-17.306612414699416,-17.306612414699412,18.438545825221404,121.6283996353266,3.8742674045835042,3.7927609468594148,0,270,3.6346557930342618,3.5531493353101724,2.0058011304307909e-13
148,43.224024369555572,11.10857948115469,44.628654705122635,14.413101891689163,1.3217967598012299,-17.164850678801514,-17.164850678801514,17.371072286804573,114.58689542119808,3.8626577928579109,3.7784205198313412,0,90,3.6287625851802767,3.544525312153707,1.4464911998299065e-13
149,44.24692138427227,12.200635218143971,45.898208589357665,15.415648585550851,1.3308386800204908,-16.957918742783001,-16.957918742783001,16.352744207685323,107.8695753168344,3.8508924218311309,3.7625021529998794,0,180,3.6227932190682033,3.5344029502369518,1.716502890464817e-13
150,45.31384881163526,13.270216441119469,47.216983581312093,16.322734300372375,1.3425840861226139,-16.698560072417731,-16.698560072417731,15.390720991662011,101.52366575942817,3.838968125747328,3.7450792168173215,0,90,3.6167456035196244,3.5228566945896178,9.7397074121871077e-13
151,46.426360473429256,14.316267569794674,48.583561663784479,17.137934631810861,1.3567255749376126,-16.399495363414889,-16.399495363414889,14.488293550799414,95.570874988423697,3.8268816457920201,3.7262213813447636,0,360,3.6106175759458612,3.5099573114986047,5.8245378979814642e-13
152,47.586060144254141,15.337538377591233,49.996731928563655,17.864732356008691,1.3729707936116835,-16.072351366558102,-16.072351366558102,13.645614238251644,90.012207989273193,3.8146296804110329,3.7059947225939296,0,90,3.6044069530018592,3.4957719951847559,2.7290467303457166e-13
153,48.794596561044465,16.332570109013762,51.45547103973437,18.506469322526637,1.3910524413876493,-15.72708199462677,-15.727081994626769,12.860587052483954,84.833838654716303,3.8022088262013849,3.6844617411468894,0,90,3.5981114720553116,3.4803643870008161,1.672143827003078e-12
154,50.053656416914116,17.299680716435969,52.958922511632679,19.066312276152768,1.4107330951730543,-15.371788642350362,-15.37178864235036,12.129701498254356,80.012610282361322,3.7896156050176066,3.661681465821097,0,270,3.5917288186875593,3.4637946794910501,4.0694619088546806e-13
155,51.364955907985475,18.236948640601963,54.506375692658615,19.547229175767125,1.4318061934217314,-15.012801861021964,-15.012801861021963,11.448702628903538,75.520455455308309,3.7768464563165871,3.6377095321920536,0,360,3.5852566196812052,3.4461196955566717,2.642257258355926e-13
156,52.730230414657562,19.1421951346627,56.097244443523088,19.951973915066084,1.454094589758661,-14.654899408229959,-14.654899408229959,10.813073283540639,71.327577081353809,3.7638977327035379,3.6125982715209104,0,270,3.5786924389702657,3.4273929777876382,5.882397545975011e-14
157,54.151221914211071,20.012965289063224,57.731045499483052,20.283077788812243,1.4774478166501619,-14.3015720777444,-14.301572077744398,10.218349973818777,67.404532114957917,3.7507656934596065,3.5863968013429082,0,270,3.5720337715354389,3.4076648794187405,4.4262630714793625e-13
158,55.629663576799338,20.846507965926602,59.407376343694189,20.542846381899242,1.5017388484156051,-13.955284877732739,-13.955284877732737,9.6603103910900963,63.723468433264905,3.7374465067861062,3.5591511250401751,0,360,3.5652780465133036,3.3869826647673724,1.8611520104478041e-13
159,57.167261523331,21.639754335451933,61.125892695122509,20.733360125750046,1.5268608325576669,-13.617708197802456,-13.617708197802454,9.1350703202328667,60.258764120448348,3.7239362415020612,3.530904226611336,0,360,3.5584226192265307,3.3653906043358055,2.2854560957312305e-13
160,58.765672730958428,22.38929562124477,62.886285070256783,20.856478165845829,1.5527240601714907,-13.289910036862192,-13.289910036862192,8.6391213471513346,56.987276202231996,3.7102308810938647,3.5016961858952431,0,180,3.5514647857689767,3.3429300905703556,2.5747543356972e-13
161,60.426479851173156,23.091359722398995,64.688255201647436,20.913843864213231,1.5792532793884142,-12.972509804211489,-12.972509804211489,8.1693318931869854,53.888347469301301,3.6963262677351594,3.4715642270578093,0,270,3.5444017277499413,3.3196396870725913,1.3404151785090485e-13
162,62.151160041443603,23.741787768717835,66.531490145283655,20.906892797490393,1.6063853930078376,-12.665798037169933,-12.665798037169932,7.7229281800309746,50.943680913863709,3.6822181562667033,3.4405428726215468,0,0,3.5372305667150239,3.2955552830698673,1.0414736638775376e-13
163,63.941049310850147,24.336010346212031,68.415635541471872,20.836861525564746,1.6340675114468048,-12.369828010937683,-12.369828010937681,7.2974645931620348,48.137144234426117,3.6679021966285985,3.4086640285073515,0,270,3.5299483471412625,3.2707101790200155,3.9537426128684593e-14
164,65.797301471274125,24.869024175352614,70.340267587890267,20.704797185645862,1.6622553341461501,-12.084484817081433,-12.084484817081432,6.8907899741923107,45.454547485937688,3.6533739109973675,3.3759570595768373,0,0,3.5225520143491122,3.2451351629285821,4.1948244795065957e-13
165,67.720839786749494,25.335369927294082,72.304862289997004,20.511568100150612,1.6909118060513941,-11.809537005830123,-11.809537005830123,6.5010138916046341,42.883420587393516,3.6386287104028114,3.3424489057465663,0,180,3.5150384314181826,3.2188586267619375,3.963385887533829e-13
166,69.712302456505469,25.729112081782709,74.308763428711657,20.257874785862288,1.7200060200828289,-11.544674751835366,-11.544674751835366,6.1264744659740646,40.412801083469944,3.623661848740988,3.308164126740798,0,0,3.5074043346291446,3.191906612628955,1.8611520104478041e-13
167,71.771978828794261,26.043821755829924,76.351146662314974,19.944261928437918,1.7495123009395479,-11.289538042895817,-11.289538042895815,5.7657092945419368,38.033042350791945,3.6084684746663021,3.2731250518623991,0,180,3.499646384878333,3.1643029620744301,1.0125438398809397e-13
168,73.899738413266391,26.272563962007077,78.430982109667312,19.5711307008199,1.7794094634436561,-11.043737145485974,-11.043737145485972,5.4174292402553847,35.735640699419079,3.5930435987332059,3.2373518338012461,0,0,3.4917611359930056,3.1360693710610459,6.2295554339337879e-13
169,76.09495083999802,26.407890639372489,80.546993931262094,19.138751743417853,1.8096802012432935,-10.806867427595318,-10.80686742759532,5.0804954136243063,33.513083535497366,3.5780893004567056,3.2015697406045716,10,0,3.4837450158176981,3.1072254559655641,2.9151619313896085e-12
170,78.356395255956713,26.441841806732448,82.697615900580715,18.647279500787285,1.8403105754296969,-10.578520031854326,-10.578520031854326,4.7538993514679841,31.358718611939402,3.5645770936315113,3.1667716085422652,10,90,3.4755943628408401,3.077788877751594,3.3491092913382744e-12
171,80.68216289490303,26.365956096534692,84.880946332401734,18.096766513258011,1.8712896136663737,-10.35828925962309,-10.35828925962309,4.4367454229078387,29.266637970956211,3.5508553138209367,3.1313252986443771,-10,360,3.4673053503816895,3.04777533520513,1.4455268723631368e-12
172,83.069546082909469,26.171294545041665,87.094696420528081,17.487180331189606,1.9026089403845849,-10.145777953880383,-10.145777953880382,4.128236319895243,27.23158223347906,3.5370210473322055,3.0953457201823045,-10,10,3.4588740932777364,3.0171987661278354,0.016907692785430129
173,85.51492443420355,25.848478382205915,89.336141262441544,16.818419625765397,1.9342625238650824,-9.9406007715607672,-9.9406007715607654,3.8276597103157868,25.248852557424321,3.5237464935826424,3.0595212438975627,20,350,3.4502964812516028,2.9860712315665232,0.028660766717858898
174,88.013637185267257,25.387747142072396,91.602063489474205,16.090334333264963,1.966246416895965,-9.7423866033652615,-9.7423866033652597,3.5343776969725238,23.31424110471562,3.5166867476879533,3.0295215707949996,20,350,3.4415683404514708,2.9544031635585171,0.029726390968576787
175,90.559855001043587,24.779039932600519,93.888700905867523,15.302747138048046,1.9985586272323401,-9.5507795261284443,-9.5507795261284407,3.2478173234619718,21.423968414050687,3.5095170275801459,2.9990349779689254,20,260,3.4326854401579294,2.9222033905467089,0.030827292110768519
176,93.146445170953768,24.012087452800234,96.191686708501081,14.455468921108272,2.0311987548217427,-9.3654406786324422,-9.3654406786324387,2.9674614087431221,19.574622941865528,3.5022341691543457,2.9680700214666085,20,260,3.4236430117651229,2.8894788640773856,0.031964602696453022
177,95.764839208702497,23.076564102559075,98.506001032668877,13.548334377536927,2.0641681501346354,-9.1860467489624327,-9.1860467489624327,2.6928433364322024,17.763126690332122,3.4948353234371385,2.9366340817097005,20,350,3.414436534119738,2.8562352923923,0.033139494481878196
178,98.404906423744023,21.962240009829149,100.82591727584311,12.581220507761609,2.0974696179823669,-9.0122909804014295,-9.0122909804014313,2.4235396931877258,15.986686647051465,3.4873173880777837,2.9047329844462286,20,80,3.4050611618727888,2.8224767582412338,0.034353183177399847
179,101.0548382607537,20.659183924599592,103.14495729960591,11.554076945862551,2.1311073753570406,-8.8438825394319647,-8.8438825394319647,2.1591653704750668,14.242762474233571,3.4796771702022715,2.8723711809480665,-20,100,3.3955118838495975,2.788205894595392,0.035606929676372967
180,103.70104712533677,19.158004026738478,105.45584997134983,10.466959178741394,2.1650869330788836,-8.6805462292359987,-8.6805462292359987,1.8993696462399541,12.529040661768569,3.4719114797892536,2.8395519232164355,-20,10,3.3857836146257032,2.753424058052885,0.036902041817879934
