mhz,zreal,zimag,zmag,zphase,vswr,s11,s11_real,s11_imag,s11_ang,gain_max,gain_net,gain_max_theta,gain_max_phi,gain_viewer,gain_viewer_net,fb_ratio
3,24.948772789766959,-497.64998264411582,498.27497076353751,-87.129983583640907,201.02931983495014,-0.086414870122822701,-0.086414870122821799,-1.7352545557966321,-11.446468532933759,2.1069358890432861,-14.948158199397753,30,180,1.7661340275459858,-15.288960060895052,1.1892355846931584
3.0499999999999998,26.422992482725927,-461.34490020044245,462.10095376735416,-86.722031976376158,163.51608318616508,-0.10624028850487417,-0.10624028850487457,-1.8693980621966251,-12.331335493677743,2.096383519128084,-14.07157903611701,30,180,1.7424218957748265,-14.425540659470267,1.208216100386067
3.0999999999999996,27.997715862040039,-425.25515262975813,426.17580519270496,-86.233228009088066,131.52156702011541,-0.13208566806116895,-0.13208566806116762,-2.0245998143633575,-13.355111496165812,2.0855952157481559,-13.149566376819624,30,180,1.71842263410555,-13.516738958462231,1.2274919473026005
3.1499999999999995,29.682360212280315,-389.32113038895312,390.45100214380778,-85.640128191245765,104.39720284801263,-0.16640590109880571,-0.1664059010988056,-2.2064066243172138,-14.554385644306286,2.0745671995921398,-12.174525965474057,30,180,1.6941320217576497,-12.554961143308548,1.2470745383477004
3.1999999999999993,31.487502274259683,-353.48235014493275,354.88200104183409,-84.909641747872257,81.570098929857807,-0.21297816070687023,-0.21297816070686931,-2.4224387377568455,-15.979424282199211,2.0632939018988252,-11.13725239330055,30,180,1.6695444669115032,-11.531001828287872,1.2669754914580456
3.2499999999999991,33.425053152096218,-317.67697857853244,319.43058228198163,-83.993603566915041,62.533436028701757,-0.2778235359147756,-0.27782353591477543,-2.6834113871218017,-17.700909587587695,2.0517679682575163,-10.026556064559299,30,180,1.6446530479936636,-10.433670984823152,1.2872066341778223
3.2999999999999989,35.508464665825429,-281.84132133714411,284.06932512327251,-82.819285070394741,46.838114086382582,-0.37094618032464194,-0.37094618032464066,-3.0047803938644586,-19.820794656237599,2.0399802504655731,-8.8289068393136159,30,180,1.6194495471609913,-9.2494375426181978,1.3077800065329017
3.3499999999999988,37.75297381499157,-245.90926643236082,248.79038234862952,-81.271869977546658,34.08540725750867,-0.50980074295870159,-0.50980074295870048,-3.409446293795626,-22.490141049503194,2.0279197875471411,-7.5283258656166492,30,180,1.5939244764503089,-7.9623211767134814,1.3287078645460302
3.3999999999999986,40.175893493706717,-209.8116720539804,213.62359454916182,-79.159907825864408,23.920344998113418,-0.72665800101863687,-0.72665800101863642,-3.9322225619620714,-25.938593084014411,2.015573775574925,-6.1072329284787159,30,180,1.5680670978804432,-6.5547396061731975,1.3500026808889467
3.4499999999999984,42.796959760947701,-173.47568473591932,178.67678349292123,-76.141689926298568,16.025373957028684,-1.0854274028494537,-1.0854274028494544,-4.6269378415733353,-30.521227119381017,2.002927527866643,-4.5503240284584834,30,180,1.5418654381962664,-5.0113861181288595,1.3716771457546872
3.4999999999999982,45.638748470280724,-136.8239731272908,144.23486050283111,-71.553460099583518,10.113361942529218,-1.7233367980787062,-1.7233367980787062,-5.5755828065003135,-36.778888108478753,1.9899644250714579,-2.8573893343907519,30,180,1.5153062990280686,-3.3320474604341408,1.3937441655687079
3.549999999999998,48.727177539072201,-99.773858146365171,111.03675337623693,-63.970217883560814,5.917620826310853,-2.9640342818764926,-2.9640342818764918,-6.8868826932452301,-45.42877341823062,1.9766658558563881,-1.0803979587415613,30,180,1.4883752631136282,-1.5686885514843212,1.416216860672701
3.5999999999999979,52.09211542325319,-62.23631778649947,81.160013189326691,-50.070496117538347,3.1737111262391791,-5.6664111749271617,-5.6664111749271617,-8.5967549354607815,-56.707809540323943,1.9630111479566144,0.58883726342036624,30,180,1.4610566970844909,0.086882812548242816,1.4391085610825582
3.6499999999999977,55.768122103656438,-24.11483970080403,60.758612037832201,-23.384264634684982,1.5925655833280312,-12.819866553983655,-12.819866553983655,-9.6573914692026364,-63.704213997410932,1.9489774910386581,1.7159556363122173,30,180,1.4333337525822409,1.2003118978558001,1.4624328005520062
3.6999999999999975,59.795356494224528,14.695911908843549,61.574787739007995,13.807919264054725,1.3793492099007132,-15.948380058843581,-15.948380058843579,7.3815009940847922,48.691483662938225,1.9345398495174528,1.8227183311874697,30,180,1.4051883644626577,1.2933668461326746,1.4862033086192676
3.7499999999999973,64.220694016449116,54.311654460036095,84.107391768742545,40.221312237735759,2.5964720792765221,-7.054307310083975,-7.0543073100839759,7.5641592947613603,49.896374601843519,1.9277458422890728,0.97464846273672701,35,180,1.3766012487986468,0.42350386924630101,1.5237846468935066
3.7999999999999972,69.099111562719813,94.860320390659851,117.35913941136343,53.929278914192125,4.4872404840882698,-3.9374419234688931,-3.9374419234688931,6.0759626571073158,40.079603957547761,1.9232134985951079,-0.32347301620441993,35,180,1.3475519002431784,-0.89913461455634947,1.5462120629640408
3.849999999999997,74.495414987660808,136.48422709006891,155.49119299354965,61.373536372541565,7.0197331771220179,-2.4916535498385675,-2.4916535498385675,4.8806794735022363,32.195013593917047,1.9184961452579579,-1.6808962781635506,35,180,1.3180185899804211,-2.2813738334410871,1.5689685910758309
3.8999999999999968,80.486408678140634,179.34265949105168,196.57530744024788,65.830142250216397,10.124534099043535,-1.7214226611186778,-1.7214226611186767,4.0008777304304965,26.391471437148205,1.9135702715095326,-2.9377159725024895,35,180,1.287978364890765,-3.5633078791212571,1.5920586122029774
3.9499999999999966,87.16364032559494,223.61496085819221,240.00239772639878,68.704490658117933,13.717518330694134,-1.2686442622930274,-1.2686442622930281,3.3485749235031022,22.08860790136513,1.9084099385767861,-4.0549263639706892,35,180,1.2574070494346645,-4.7059292531128101,1.6154859578605247
3.9999999999999964,94.636900402811776,269.50425111125077,285.63732999187596,70.651184034241197,17.714351301389616,-0.98170503568780765,-0.98170503568780776,2.8526326128533626,18.817163931349693,1.9029866515297567,-5.036656457815166,35,180,1.2262792501465878,-5.7133638591983349,1.6392538454253003
4.0499999999999963,103.03872074056194,317.24192207085088,333.55571512276526,72.006441208894131,22.035524683746022,-0.78889519419295218,-0.78889519419295207,2.4652027525408826,16.261513701260075,1.902297635422646,-5.8938306664554831,40,180,1.1945683653808372,-6.6015599364972921,1.6443691752797545
4.0999999999999961,112.53020854986237,367.09309819252144,383.95363076400218,72.957390255032408,26.607776058496139,-0.65319120559779775,-0.65319120559779886,2.1548688729152379,14.21442097012622,1.9129167410257053,-6.637026048754409,40,200,1.1622466001968241,-7.3876961895832904,1.5659870633064543
4.1499999999999959,123.30868332205067,419.36329775640223,437.11623956076335,73.614667661315266,31.364219659731539,-0.55406031190794081,-0.55406031190794092,1.900727940426223,12.538000541233894,1.9282929925519858,-7.2880650287036648,40,210,1.1292849885043061,-8.0870730327513449,1.4599028032088479
4.1999999999999957,135.61777430933586,474.40658922038165,493.41036937252738,74.046449494058052,36.24402538993963,-0.4794221720977429,-0.47942217209774218,1.6885409832623335,11.138326170599322,1.9505395884517271,-7.8576285194456581,45,140,1.0956534237290683,-8.7125146841683172,1.2507054915772313
4.2499999999999956,149.7609144662851,532.63560527823404,553.28927290513116,74.295633713749837,41.191954045935461,-0.42181036532490157,-0.4218103653249019,1.5083587428643845,9.9497683662016954,1.9909527885103875,-8.3449161436505257,45,220,1.0613206996561499,-9.2745482325047632,1.25719286146205
4.2999999999999954,166.1195803612647,594.53385519981737,617.30561309464872,74.389026953732269,46.157866751337281,-0.37641466455982903,-0.37641466455982825,1.3530570368236083,8.9253330259408656,2.0351404543790261,-8.7728853609422117,45,130,1.026254563386972,-9.7817712519342663,1.0529245584841114
4.3499999999999952,185.1782498909659,660.67085036915989,686.1318800057245,74.342441996803728,51.096254741837896,-0.34002487635976569,-0.34002487635976564,1.2174178371315474,8.0305998434685559,2.0953621260263722,-9.1362773273560371,50,130,0.99042178234829747,-10.241217671034113,0.98659983688222441
4.399999999999995,207.55899965998469,731.7206025332049,760.58909965329508,74.163544577947292,55.965806898593556,-0.31043291145519292,-0.31043291145519319,1.0975397058842389,7.2398332942464627,2.1622868075312027,-9.4501706499154352,50,230,0.95378822742575708,-10.65866923002088,0.98597824230970466
4.4499999999999948,234.07013627675531,808.48401007129075,841.68594097654602,73.853353586140386,60.729020598036925,-0.28607985888839027,-0.28607985888839083,0.99045057719546648,6.5334283822636312,2.2395879086624304,-9.7156371355285867,55,230,0.91631897489675884,-11.038906069294258,0.8971685707152689
4.4999999999999947,265.77557049844785,891.91537298519495,930.67163190950157,73.406840843025336,65.351856289237432,-0.26583996674622712,-0.26583996674622756,0.89384758133204301,5.8961944106575661,2.3242949761855973,-9.9395873780246724,55,120,0.87797842971977103,-11.385903924490499,0.68672889294959272
4.5499999999999945,304.09533426443193,983.1524709500917,1029.1077462815385,72.812827965087521,69.803434071523782,-0.24888414262503988,-0.24888414262504013,0.80591844016495306,5.3161768310264748,2.4188404361455049,-10.122878204755997,60,230,0.83873047224178332,-11.702988168659719,0.78608209498490556
4.5999999999999943,350.95360289410547,1083.547636638564,1138.9661593960423,72.053218900292222,74.055769725581811,-0.23459124540040494,-0.23459124540040527,0.7252163911272187,4.7838321892746949,2.5204957175510296,-10.270997029615135,60,120,0.79853863325067098,-11.992954113915493,0.59977100514874238
4.6499999999999941,409.00030955693683,1194.6925960264628,1262.763498133407,71.101476290722772,78.083547407966222,-0.22248898371880407,-0.22248898371880541,0.65057096703242878,4.2914395917884702,2.6263488933560164,-10.389178678116535,65,230,0.75736629746585971,-12.258161274006692,0.66011481749418832
4.699999999999994,481.94834989870088,1318.4192646444794,1403.7462624547823,69.920107618891976,81.863926304756376,-0.21221365973699885,-0.2122136597370006,0.58102325806625699,3.8326736663168308,2.7373206512810793,-10.478463882499122,65,120,0.71517694198977955,-12.500607591790422,0.50316836778675167
4.7499999999999938,575.09413601244512,1456.7347966476741,1566.1447995124975,68.456735895391446,85.376378578148575,-0.20348220486896246,-0.20348220486896279,0.51577818869710668,3.4022897604119122,2.8517458770532844,-10.542176753052706,70,230,0.67193441136033483,-12.721988218745656,0.52611538024012761
4.7999999999999936,696.12928625869074,1611.595038024793,1755.5154655465637,66.638045542448808,88.602556234840677,-0.19607241243504708,-0.19607241243504725,0.45416881151037802,2.9958884085492832,2.9687600824199429,-10.582585480145836,70,230,0.62760323260807216,-12.923742329957706,0.52021533175247792
4.8499999999999934,856.40608071746874,1784.2969269759378,1979.1783392877032,64.360467278585006,91.526184583871171,-0.18980874872203277,-0.1898087487220321,0.39562921618328833,2.6097366283370786,3.0854264072025428,-10.603813173549312,75,220,0.58214897539982779,-13.107090605352028,0.46707549728330272
4.8999999999999932,1072.8641410734137,1973.9876764167875,2246.700872801393,61.475878645647128,94.132980165760102,-0.18455203246005447,-0.18455203246005536,0.33967369598269581,2.2406304939774548,3.2046948879433961,-10.603909152097771,75,220,0.53553865832525815,-13.273065381715909,0.46150796904778685
4.9499999999999931,1370.7252063618478,2174.1537794984042,2570.1813648579209,57.770053746718965,96.410591103742902,-0.18019184507299396,-0.18019184507299341,0.28588051507469397,1.885788058616622,3.3244225802631093,-10.585853625203784,75,130,0.48774120697462686,-13.422534998492266,0.38031067904409327
4.9999999999999929,1786.2669029529102,2364.6347233604424,2963.4855868566151,52.932264027770429,98.348557858644114,-0.17664090212316486,-0.17664090212316516,0.23387909296535572,1.5427648175284678,3.4429167653237625,-10.552034707128641,75,230,0.43872796548068277,-13.556223506971721,0.37564466933038726
5.0499999999999927,2365.6073656336221,2494.6589654570503,3437.9385629000535,46.520981473396454,99.938292380956014,-0.17383085773928139,-0.17383085773928011,0.18333974908531978,1.2093860590832151,3.5599527059829699,-10.503247201828827,80,150,0.38847326382459307,-13.674726643987205,0.33704395793918862
5.0999999999999925,3144.636475353549,2453.1494873606002,3988.3180627253851,37.95800336015666,101.17307362230264,-0.17170917514318146,-0.17170917514318124,0.13396537782792273,0.88369194979921661,3.6768320972668289,-10.438647714413516,80,210,0.33695504355836958,-13.778524768121976,0.33283792674895307
5.1499999999999924,4074.9279796915043,2046.0651804082413,4559.7610422204907,26.661719528341216,102.04805725520973,-0.17023680631533641,-0.17023680631533677,0.08548458455488378,0.56389225655089992,3.7917431343273336,-10.360405710581997,80,210,0.28415554180018859,-13.867993303109142,0.32867601776111005
5.1999999999999922,4886.6493960099888,1085.9791742493715,5005.8658678023057,12.529445542915374,102.56029735598405,-0.16938650008335088,-0.16938650008335054,0.037645927137782746,0.24832836135555969,3.9054029081291337,-10.268070240566654,80,140,0.2300620344211132,-13.943411114274674,0.28615600877336245
5.249999999999992,5118.3028035781226,-296.1406656238824,5126.8628695286779,-3.311393409128057,102.70877763092605,-0.16914161210595985,-0.16914161210595952,-0.0097870110219438096,-0.064559239057998458,4.0168507959755466,-10.162783994118973,80,220,0.17466763573082089,-14.004967154363699,0.28251294689443801
5.2999999999999918,4603.4006061418731,-1549.0639431852289,4857.0460406201564,-18.598305945996756,102.49444954389499,-0.16949532976278642,-0.16949532976278628,-0.057039931410502044,-0.37625936657533876,4.1259290232618024,-10.044808769801588,80,220,0.11797215175024747,-14.052765641313142,0.27889486904675237
5.3499999999999917,3707.1534274398637,-2268.9285753005847,4346.3804958142664,-31.4683264609675,101.92027457503761,-0.17045025462870311,-0.17045025462870342,-0.10433168839090204,-0.68821567657896499,4.2332324800009671,-9.9135804801988989,80,130,0.059982981318716169,-14.08682997888115,0.23011414089840992
5.3999999999999915,2837.6355932882934,-2505.1047683176225,3785.198232661573,-41.438519063513262,100.99126753888288,-0.1720183089153442,-0.17201830891534459,-0.15187785826161282,-1.0018502009596042,4.3381132657549575,-9.769708374290067,80,130,0.00071605733549947117,-14.107105582709526,0.22708723469251574
5.4499999999999913,2152.4227923645217,-2469.2200396797525,3275.663517739019,-48.921288885664623,99.714537749240918,-0.17422095195862006,-0.1742209519586187,-0.19989413422330116,-1.3185857427440242,4.4401842079937417,-9.6134743512842604,80,230,-0.059803182951710145,-14.113461742229712,0.22406994902502536
5.4999999999999911,1651.2427755654217,-2317.5480503364292,2845.6337904718489,-54.530295258761214,98.099324599816583,-0.17708971085947245,-0.1770897108594727,-0.24859965861278427,-1.6398678569110219,4.5404015752942524,-9.4437522303073802,75,110,-0.12153881203937297,-14.105692617641006,0.1729442223110183
5.5499999999999909,1290.9331855161729,-2130.3233175587347,2490.9407714358417,-58.784977795831267,96.157023978712829,-0.18066704715997989,-0.18066704715998005,-0.29822039866371403,-1.9671871183280307,4.6385783804683687,-9.2604956388340245,75,110,-0.18444342835106065,-14.083517447653454,0.17048352536707156
5.5999999999999908,1030.120805699376,-1942.5186550842543,2198.7559208982411,-62.062919869441544,93.901201874887235,-0.18500760048555501,-0.18500760048555398,-0.34899267080129848,-2.3021023694806808,4.7336642710816772,-9.0644585572912444,75,110,-0.24845719480614825,-14.04658002317907,0.16801643074026978
5.6499999999999906,838.2615503652471,-1767.4657244378141,1956.1742033579817,-64.626270034139552,91.347591489434905,-0.19017987222033853,-0.19017987222033728,-0.40116692437187385,-2.6462656795436974,4.8254945911529044,-8.8554459476027176,75,110,-0.3135069250755752,-13.994447463831197,0.16554048379430325
5.6999999999999904,694.43246175285901,-1609.0394695330383,1752.496635788867,-66.655841912232006,88.514070276478449,-0.19626843924745846,-0.19626843924745835,-0.45501190516225876,-3.0014498087048582,4.9139046548537584,-8.633198417491883,75,250,-0.37950524504365246,-13.926608317389295,0.16305323885461198
5.7499999999999902,584.55414896412026,-1467.2379872344413,1579.3957275663822,-68.277442516713506,85.420613520616072,-0.20337682226925391,-0.20337682226925377,-0.51081933684634451,-3.3695790889547368,4.9987306622326209,-8.3973894638566495,75,250,-0.44634986210335914,-13.842469988192629,0.16055225980638757
5.7999999999999901,499.11131488747361,-1340.62480294443,1430.519824021497,-69.579825033895716,82.089221399062751,-0.21163117847098262,-0.21163117847098081,-0.56890928123539497,-3.7527647825510755,5.0833222151925455,-8.1441102939235943,70,100,-0.51392297658284203,-13.741355485698982,0.10376953359062585
5.8499999999999899,431.58649395027089,-1227.3672513662673,1301.0369985079874,-70.626490746447658,78.543816951838849,-0.22118504907969261,-0.22118504907969233,-0.62963637041714615,-4.1533461918282066,5.164442292687764,-7.8759663077714999,70,100,-0.58209087273077031,-13.622499473190034,0.10198549227038466
5.8999999999999897,377.43966128073174,-1125.6583639312778,1187.2520584088934,-71.463404169754398,74.810112973980466,-0.23222547551117667,-0.23222547551117573,-0.69339714688656828,-4.5739390777852789,5.2417302848871135,-7.5926095726408089,70,100,-0.65070372817428901,-13.485043585702211,0.10018531989236315
5.9499999999999895,333.45159413143904,-1033.8706765336556,1086.3142001396081,-72.124067994185083,70.915446630479352,-0.24498091289173282,-0.24498091289173143,-0.7606388017123018,-5.0174933007055023,5.3150312185480333,-7.2934040832167506,70,100,-0.71959568043918853,-13.328030982203973,0.098367806118909246
5.9999999999999893,297.29941220438502,-950.59565104605008,996.00152223013026,-72.63289254771621,66.888581454702873,-0.25973153151977224,-0.25973153151977191,-0.83186967201066653,-5.4873620659077371,5.3873521279119636,-6.974462783685297,65,260,-0.78858518773822572,-13.150400099335487,0.11648210795558112
6.0499999999999892,267.27892238923999,-874.63660514214882,914.56394713991244,-73.007448278009591,62.759477389307584,-0.27682272673666142,-0.27682272673666164,-0.90767194823874497,-5.9873857463936924,5.4560965862144526,-6.6374052890971109,65,260,-0.85747571801998601,-12.950977593331549,0.11406408728601596
6.099999999999989,242.12024083840646,-804.98500000870604,840.60874446002788,-73.259969358609737,58.559030590575759,-0.29668298859304365,-0.29668298859304376,-0.988717153293035,-6.5219939894898813,5.5206792439295231,-6.2817344638520307,65,260,-0.92605679426777865,-12.728470502049333,0.11161874020732156
6.1499999999999888,220.86336214589201,-740.79292728947894,773.01667890188673,-73.398337947747621,54.31878579643611,-0.31984776501485013,-0.31984776501484963,-1.0757850913903604,-7.0963307116320253,5.5809708574948447,-5.9063814769554357,65,260,-0.99410541645376638,-12.481457750904047,0.10914513144493665
6.1999999999999886,202.77281109259968,-681.34700745157829,710.88012877110032,-73.426690295264024,50.070625144303413,-0.34699166400806281,-0.34699166400806308,-1.1697871225161149,-7.716407626410005,5.636853112363573,-5.5101403171032555,65,260,-1.0613878698329204,-12.208381299299749,0.1066423114288461
6.2499999999999885,187.27817050702365,-626.0455144678881,653.45703709870668,-73.345727404857371,45.846438280748046,-0.37897240554457989,-0.37897240554457895,-1.2717947879292018,-8.3892930704323057,5.6882195872878967,-5.0916560253281311,65,260,-1.1276619172767222,-11.90753752989275,0.10410931674236379
