mhz,zreal,zimag,zmag,zphase,vswr,s11,s11_real,s11_imag,s11_ang,gain_max,gain_net,gain_max_theta,gain_max_phi,gain_viewer,gain_viewer_net,fb_ratio
14,12.295430142337544,-0.42951983492445739,12.302930125530917,-2.0007165357591665,4.0668709130711882,-4.3608868695632763,-4.3608868695632772,-27.128696887227658,-178.95228928910103,7.5637611695725679,5.5821681580622107,0,270,6.9067460763046684,4.9251530647943111,1.7936490877890771e-13
15,14.805722530215055,8.0751179480410418,16.864665710191005,28.60828030070698,3.4733661332077772,-5.1469207121614193,-5.1469207121614176,24.251753209076988,159.97475935093226,7.5942553875817822,6.0096720453361279,0,270,6.9180889659668807,5.3335056237212264,1.3886315518367112e-13
16,17.723802644945565,16.190184916438511,24.00531749061971,42.41080281651756,3.154298805062155,-5.7038358028673555,-5.7038358028673546,21.210916661998471,139.91612315046436,7.6276114291445873,6.2672850427616931,0,210,6.9304833177591476,5.5701569313762533,1.2921988051813856e-13
17,21.112037055890422,23.976446165365655,31.946644258356272,48.635036846549013,3.0020409761635412,-6.0161713792056881,-6.0161713792056881,18.445718577566247,121.6757141251434,7.663900241043379,6.4130356928535672,0,270,6.9439182111488549,5.6930536629590431,4.8119940581006358e-13
18,25.040732831947828,31.462850600362163,40.211307721357429,51.484331074487926,2.9491174040390695,-6.133240914979817,-6.133240914979817,16.020438776284873,105.67754899358296,7.7031877275605609,6.4907073589715321,0,30,6.9583759937505665,5.7458956251615376,5.4966665593533887e-13
19,29.587464655674172,38.646969069393286,48.672438638323946,52.562943577119768,2.9525755813265873,-6.1254465901455388,-6.1254465901455379,13.938058685109297,91.941294501338618,7.7455333927822618,6.5305398773072891,0,210,6.9738309405566623,5.7588374250816905,8.8139530442961496e-13
20,34.835136266309782,45.49289355383462,57.298255493451968,52.557744684765787,2.9852864098997034,-6.0527273709951253,-6.0527273709951253,12.163131516511898,80.233128736418749,7.7909891550218457,6.552258342857888,0,30,6.9902479147056118,5.7515171025416532,1.4239259371102493e-11
21,40.868028364771632,51.9271275734827,66.080423125586336,51.796314845491473,3.0303987765516069,-5.9553335052382952,-5.9553335052382952,10.646385107013696,70.22803179501291,7.8395983163249738,6.5682356830459856,0,150,7.0075809974495495,5.7362183641705613,4.9952162767457401e-13
22,47.764824814307602,57.833128282725816,75.007661052106641,50.446437927685736,3.0776422698551493,-5.8567670025943253,-5.8567670025943261,9.3394166724469869,61.606718564725767,7.8913945337402449,6.5859933763862006,0,270,7.0257719195384638,5.7203707621844195,4.0810338384515936e-12
23,55.587378999543596,63.045612497003937,84.051805210603774,48.597343712730819,3.120902773021657,-5.7694321627666607,-5.7694321627666598,8.2005458034078398,54.094247543120041,7.946401063627925,6.6099560064239125,0,210,7.0447485589233363,5.7083035017193247,1.3211286291778026e-12
24,64.363971783974861,67.346582420945381,93.157302599364158,46.297252144163103,3.1566701638140611,-5.6992366793217677,-5.6992366793217659,7.1958962110823199,47.467156487940855,8.0046298471187818,6.6426105316965387,0,330,7.0644230624909881,5.702403747068745,1.6972163411337522e-13
25,74.06630590380577,70.466252367613109,102.23165064192338,43.573157254824743,3.1830571815773863,-5.6485737971485284,-5.6485737971485275,6.2985773810787684,41.548064261769319,8.0660802541207666,6.6852485456801709,0,150,7.0846894093820474,5.7038577009414517,1.0472596286767434e-12
26,84.580937244629695,72.09345597961638,111.13685860354732,40.442965200639897,3.1991808685259637,-5.6180726470416262,-5.6180726470416253,5.4873711617883361,36.197007016704042,8.1307383229579777,6.7384345538880641,0,330,7.1054212509727419,5.7131174819028283,3.4426490555950987e-13
27,95.678812647734276,71.901011769937412,119.68371101875525,36.924243573703691,3.2047711474864795,-5.6075769315139912,-5.6075769315139912,4.7454700087099235,31.303115123499541,8.1985749578480664,6.8022978215257384,0,90,7.126468494736212,5.7301913584138839,2.0250876797618557e-13
28,106.99098403656588,69.590538844095008,127.63194647784775,33.041331717653122,3.1999217318533462,-5.6166793445251093,-5.6166793445251075,4.0594302356451974,26.777708376406277,8.269543971417507,6.8767135008714604,0,150,7.1476535210680137,5.7548230505219671,1.1668362345294616e-13
29,118.00333000927178,64.956616701289519,134.7002150946885,28.831212470537789,3.1849308239004679,-5.6450118412045756,-5.6450118412045738,3.4183517878258636,22.548885431903354,8.3435793198155164,6.9614136011957157,0,150,7.1687663902594467,5.7866006716396452,1.967228031768661e-13
30,128.08495506843713,57.960980909254417,140.58887232937931,24.34769448164538,3.1601991068103827,-5.692406685070269,-5.692406685070269,2.8132499547013063,18.5573793621204,8.4205913558862093,7.0560534006044495,0,270,7.1895588780902697,5.8250209228085108,1.3114853545124507e-13
31,136.55933197570332,48.795818059003196,145.01545783018335,19.662987750888799,3.1261646314993912,-5.7589932527276835,-5.7589932527276826,2.236576789269384,14.753400735553173,8.5004620561225046,7.1602493809307024,0,210,7.2097373066356401,5.8695246314438378,1.9093683837754665e-13
32,142.81179119963929,37.90805284595244,147.75732867178161,14.865814519781928,3.0832618849481408,-5.8452673335390903,-5.8452673335390894,1.6818538127204798,11.094214782488574,8.5830382602669175,7.2735976195251126,0,30,7.2289532360636439,5.919512595321839,7.3288887458049195e-14
33,146.40635225650033,25.962735360752653,148.69056327980917,10.05591483770443,3.0318969699125162,-5.9521548609253916,-5.9521548609253898,1.1433867470955701,7.5422596516938851,8.6681229570029981,7.3956787456713204,0,150,7.2467920797226366,5.974347868390959,8.2932162123581897e-14
34,147.17215158887103,13.745876847000908,147.8126900289368,5.3359447751167748,2.9724338714290126,-6.0810844898997098,-6.0810844898997098,0.61603919833551035,4.0636535286685485,8.7554638639180205,7.5260522665085006,0,330,7.2627589432391471,6.0333473458296272,1.4464911998299065e-13
35,145.22708694519139,2.0349035023150401,145.2413426502589,0.80276865366229522,2.905188660549253,-6.2340806321113584,-6.2340806321113584,0.095048112317531741,0.62697730608055402,8.8447385691570766,7.6642414944035977,0,30,7.2762610323112034,6.0957639575577254,3.9537426128684593e-14
36,140.9325951229749,-8.5200830888151327,141.18990114004853,-3.459606955462446,2.830429841474178,-6.4138884940107168,-6.413888494010715,-0.42413203719749321,-2.7977532180351581,8.9355353847969017,7.8097089986580652,0,90,7.2865858943999076,6.1607595082610711,6.6538595192176305e-14
37,134.80215297906341,-17.469192536118271,135.92936818677111,-7.383885936594055,2.7483839599596713,-6.6241451451161932,-6.6241451451161923,-0.94596636948761292,-6.2399918475261247,9.0273288469703807,7.9618213971767897,0,270,7.292874616313421,6.22736716651983,3.2690701116155206e-13
38,127.39940864146014,-24.578756418913947,129.74869783274917,-10.919728668794114,2.6592462693564993,-6.8696157777401057,-6.8696157777401057,-1.4749663015765224,-9.7294977856332547,9.1194485997324293,8.1198013247332348,0,270,7.2940889922295966,6.294441717230403,2.5168946877040063e-13
39,119.25565867015891,-29.802376001354432,122.92312125950738,-14.03102575409226,2.5631968986144846,-7.156522738965486,-7.1565227389654842,-2.0158130351664689,-13.297150206712894,9.2110404493362701,8.2826636181818962,0,330,7.2889718686524931,6.3605950374981193,1.4079181011677763e-13
40,110.81997241551458,-33.229277465190727,115.6946462332378,-16.691315874916587,2.460422891201699,-7.4930108930967565,-7.4930108930967538,-2.5734860830163959,-16.975796070258216,9.3010173573634383,8.449131334571943,0,210,7.2759990902739915,6.4241130674824962,1.2439824318537224e-13
41,102.44044352381735,-35.030066370827171,108.26426011986121,-18.878401899117677,2.3511475588236608,-7.8898154068136499,-7.8898154068136472,-3.153406723970825,-20.801196410576708,9.3879997209600994,8.6175274736874865,0,270,7.2533233305801055,6.4828510833074926,2.4011753917176184e-13
42,94.36745319879509,-35.411907951251614,100.7929533646807,-20.568879521797701,2.2356697915094901,-8.3612352948037216,-8.3612352948037199,-3.7616094171108228,-24.813157056590683,9.4702445036379466,8.785637116880288,0,270,7.2187113974816421,6.5341040107239845,1.0125438398809397e-13
43,86.76835955834693,-34.587040325639158,93.407770441938965,-21.732893960239359,2.1144050676486308,-8.9266403809367567,-8.9266403809367585,-4.4049900291358153,-29.057166043999924,9.5455546438901671,8.9505345196827459,0,150,7.1694675568373185,6.5744474326298974,4.1658946555100009e-13
44,79.746510114646497,-32.754140488803486,86.211017826178647,-22.32933849139193,1.9879461303239514,-9.6127899766777851,-9.6127899766777851,-5.0916866945161141,-33.586905928957378,9.6111883991974718,9.1083791624963126,0,30,7.1023665543687553,6.5995573176675961,2.4011753917176184e-13
45,73.359353043240972,-30.089103577833615,79.290282084505591,-22.301497731023332,1.8571234299462751,-10.457712714000136,-10.457712714000136,-5.8317699972658454,-38.468806517188604,9.6637503642827713,9.2541779166576266,0,210,7.0135869849570494,6.6040145373319046,1.3211286291779832e-13
46,67.633281193202833,-26.742179171051149,72.72829484991,-21.573827501624926,1.7230611726807448,-11.517647130939007,-11.517647130939007,-6.6387884221141977,-43.79223930960886,9.6990826603085711,9.3815415807838125,0,150,6.8986600114651626,6.5811189319404031,2.1890233490759066e-13
47,62.575810560343726,-22.839125206341652,66.613494935147898,-20.051237278838101,1.5872409083846555,-12.880411354225473,-12.880411354225469,-7.5333740873889852,-49.693302432235555,9.7121742549599119,9.4824652596301675,0,210,6.7524828677954059,6.5227738724656614,9.450409172222112e-14
48,58.183831824676524,-18.484056073700518,61.049312975151047,-17.624205162944378,1.4515401528661711,-14.694852702277988,-14.694852702277988,-8.5535455663761883,-56.422782377074306,9.6970988443914443,9.5472090808624532,0,90,6.5694019757708659,6.4195122122418757,6.6056431458895147e-13
49,54.449779665820344,-13.763313377501241,56.162329908789282,-14.185561410215513,1.3182989234295179,-17.246685276227772,-17.246685276227772,-9.7897038498212012,-64.577002082714458,9.6470223524160339,9.5643725691327397,0,30,6.3434538386565187,6.2608040553732254,6.7502922658724848e-13
50,51.365580285160718,-8.7494688628745028,52.105431995269953,-9.6668214557709238,1.1906700761912044,-21.205888717246019,-21.205888717246019,-11.551078704357581,-76.195771086836487,9.5543132804303461,9.5212880654073384,0,150,6.0688217872613262,6.0357965722383184,3.606584724909144e-13
51,48.925142724096908,-3.5051610759920155,49.050542756853382,-4.097859975926105,1.076924557858286,-28.627114256081725,-28.627114256081725,-15.920584952838963,-105.01887119662882,9.4107899792143979,9.4048282679698492,0,90,5.7405998456397853,5.7346381343952366,2.7869063783389103e-13
52,47.12557435207998,1.913399344433953,47.164402413946668,2.3250543936645518,1.0737107339481999,-28.984348802408313,-28.984348802408309,22.015146191135404,145.22115921434943,9.2081281056451285,9.2026374534435451,0,210,5.3559374299123599,5.3504467777107765,4.0598186341891488e-13
