mhz,zreal,zimag,zmag,zphase,vswr,s11,s11_real,s11_imag,s11_ang,gain_max,gain_net,gain_max_theta,gain_max_phi,gain_viewer,gain_viewer_net,fb_ratio
7,83.816321308658388,-87.050743252636948,120.8429047091834,-46.084448876154042,2.9141481546386157,-6.213234222003222,-6.2132342220032202,-19.117339757449233,-126.10600977018386,6.5951963862727512,5.4081673710936622,50,90,-1.9331555729144498,-3.1201845880935384,7.6191513132308378e-12
7.2000000000000002,78.162436837633891,-41.194860260694441,88.353738145566027,-27.791098514834655,2.6858168752732103,-6.7944671444628639,-6.7944671444628622,-23.178460467438441,-152.89486922602103,6.6296820726816232,5.6103708861989317,45,90,-1.7662311894246412,-2.7855423759073332,1.0118688106531853e-11
7.4000000000000004,74.613225971470584,2.5099390886964472,74.65543037246988,1.9266652338290322,2.6809803230382885,-6.8080173225409517,-6.808017322540949,27.034293847108046,178.32956715041956,6.6903918802676579,5.6746581406304246,45,90,-1.5673907200683712,-2.5831244597056049,1.2268174029473592e-11
7.6000000000000005,72.811593435882912,45.313031381512104,85.760124484833909,31.895352432626748,2.9079923118912592,-6.2275416050830561,-6.2275416050830543,22.885164326151532,150.96016457945674,6.73992236407347,5.5573808040337731,45,90,-1.3255899147069927,-2.5081314747466896,1.4984684502745673e-11
7.8000000000000007,72.648856677564922,88.348072692922472,114.38198426811489,50.569447563883031,3.3553832724305601,-5.3392958474773868,-5.3392958474773868,19.297643045553599,127.29536605614022,6.7727306475131046,5.2702243357292886,45,90,-1.0272308450043985,-2.5297371567882143,1.8474585604188577e-11
8,74.2433052774781,132.77753882599069,152.12476193970616,60.788017134508578,4.0025237549184318,-4.4340541504706481,-4.4340541504706472,16.313400298529317,107.61004635227273,6.8360599767424386,4.8962158793601898,40,260,-0.65547088891850247,-2.595314986300751,0.42655973506924766
8.1999999999999993,78.007735569005476,179.94784564912507,196.12861586817263,66.563175712335862,4.8220188075300614,-3.6556156847904124,-3.6556156847904124,13.82879451691997,91.220542114446232,6.9084410457578418,4.4598578773426043,40,260,-0.19087876854034164,-2.6394619369555792,0.54004929593509421
8.3999999999999986,84.852521755736362,231.59315361036465,246.64820949583574,69.877865982061365,5.7684427821977033,-3.0422437223800491,-3.0422437223800491,11.722168663537103,77.324352382017267,6.9487053286708109,3.9701158955564102,40,260,0.38611293262140856,-2.5924765004929924,0.69759686258672282
8.5999999999999979,96.676021521613293,290.14672839938243,305.82899983178902,71.572081286898353,6.758157713370915,-2.589500963302052,-2.5895009633020512,9.8900259380643867,65.238768751125036,6.936889312691326,3.4606003716737597,40,100,1.089435372073277,-2.3868535689442893,0.92492771575728494
8.7999999999999972,117.65705105601226,359.14922204672979,377.93034458742301,71.861237870557744,7.6387609857944163,-2.2872885033445414,-2.2872885033445409,8.2476522164843278,54.404981246816824,6.9595160799326914,3.0813160410896314,35,250,1.9173395702950626,-1.9608604685479973,2.5627987420672165
8.9999999999999964,157.8007120232835,443.32865122823591,470.57556004843906,70.407056430850915,8.1613810347229307,-2.1392832928186722,-2.1392832928186722,6.7223855127985397,44.343680863106947,7.0990037051901851,2.9980212344220334,35,110,2.8374351441223267,-1.263547326645825,3.5237987590908881
9.1999999999999957,243.25663712894058,544.13212154264318,596.03150688682467,65.912760850139051,7.9991965489710193,-2.1831109567249976,-2.1831109567249971,5.2485162418847606,34.621419552905387,7.4187201684713173,3.3857090173208917,35,240,3.7717667340082106,-0.26124441714221502,5.6929355672270221
9.399999999999995,435.37917337539744,620.59691455384541,758.08677271325428,54.948456828500149,6.9146932321912651,-2.5300372376663578,-2.5300372376663587,3.7753272364284785,24.903645559637969,7.7552542451298612,4.2049016023296559,35,120,4.5944025177497094,1.0440498749495042,6.8544820609895574
9.5999999999999943,701.72969566014945,458.40690287038336,838.18939051416248,33.154690720670743,5.0946522668756495,-3.4546381207451975,-3.4546381207451988,2.3451109079148664,15.469337408749155,7.992591551811568,5.3853582970618019,35,230,5.1639377385349672,2.5567044837852011,5.39864632910054
9.7999999999999936,610.97687592570685,157.73028054312567,631.00838688257522,14.475466312864201,3.2810471422596037,-5.4683149868186014,-5.4683149868186014,1.5144872132287188,9.9901943330698,8.0881388696979393,6.637863281999949,35,230,5.3920816477503326,3.9418060600523424,4.7662121029014335
9.9999999999999929,402.8167907074893,146.82448913653954,428.74094449455964,20.026517982215562,2.3532218408162562,-7.8818657519125948,-7.8818657519125939,3.3674511849286177,22.213123657111069,7.9737399044457069,7.201722798539997,30,120,5.2946655647964169,4.522648458890707,5.3800691665623557
10.199999999999992,301.13641845726403,246.42622860214877,389.11313093282638,39.294180339199784,2.8240045126039446,-6.4298497532245289,-6.429849753224528,6.2914706628570896,41.50118536078898,7.7910775648843451,6.6699634196842865,30,120,4.9599314398958718,3.8388172946958137,4.3157556543126265
10.399999999999991,265.27848852531582,364.38296752563178,450.71900725070577,53.944591705090438,4.3531564992746814,-4.0631223351167671,-4.0631223351167671,6.3332887950858963,41.777035340876395,7.5733844900632938,5.4098284069311173,30,120,4.4897750372171998,2.3262189540850238,3.4107962229838673
10.599999999999991,266.35126979909813,492.37597534205474,559.80094678164994,61.588784400241693,6.4793295606830208,-2.7027049506830778,-2.7027049506830778,5.4226823845628536,35.770292647638165,7.3613645609005278,4.0200117780817699,30,240,3.954801976551571,0.61344919373281259,2.6962516922719115
10.79999999999999,297.41134193254345,639.086346510608,704.90060618954874,65.044164264866964,8.9137790018650183,-1.9571063054458961,-1.9571063054458959,4.4308463463279013,29.227725181924729,7.2190890069745191,2.8155228775013246,30,110,3.3918279976470842,-1.0117381318261103,2.4867851095212168
10.999999999999989,366.4666196885704,819.85084290860971,898.02738709012942,65.915747361061221,11.461596440730601,-1.5195143975847769,-1.5195143975847769,3.5116778792209749,23.164503564060002,7.3411344749562275,2.0427118613629753,30,250,2.8142454752846047,-2.4841771383086475,1.9437554551513068
11.199999999999989,502.53698047962996,1058.7382378991481,1171.9513953826656,64.608342298860023,13.991873818002416,-1.2436824870134648,-1.2436824870134648,2.6710350986819229,17.619270386175803,7.5215068341188562,1.4837471818707169,30,100,2.2251513763543014,-3.812608275893838,1.0459391018166546
11.399999999999988,785.13980485487639,1392.0205950440723,1598.1757882643592,60.575746741955328,16.459652532540723,-1.0567173579133291,-1.0567173579133302,1.8930936773375735,12.487641732536661,7.9283290571619647,1.2724236697283908,30,260,1.648209057618881,-5.007696329814693,0.83478576635002899
11.599999999999987,1490.8234113544042,1818.7649163267427,2351.6930634552218,50.65886952077414,18.628814985198055,-0.9334192331648512,-0.93341923316485276,1.1442464619855781,7.5479306925235425,8.2644859009924012,1.1290564785498169,30,260,0.99049256989729983,-6.1449368525452845,0.69255594017417788
11.799999999999986,3298.6995786525531,1612.7570663276633,3671.8393572149016,26.05432933255198,20.447662989260436,-0.85025113847131129,-0.85025113847131184,0.41651747859204885,2.7475243883927059,8.6078663362647028,1.107303498401345,25,90,0.30293840082163564,-7.1976244370417222,3.8818037838462535e-11
11.999999999999986,3801.2710919899928,-1457.9215303075955,4071.264803882601,-20.983580458843921,21.808938310861066,-0.79710295796316444,-0.79710295796316477,-0.30620981163122307,-2.0198886449275224,9.0147681813158584,1.2596119227253588,25,90,-0.39173722324670346,-8.1468934818372034,3.3886467174550304e-11
12.199999999999985,1601.1401578594659,-2156.2572234233453,2685.7205771776762,-53.40407244142154,22.605544794898556,-0.76897612536611992,-0.76897612536611959,-1.0394133037670974,-6.8564071101491884,9.3652591881998042,1.4677283214209975,25,90,-1.030650234405557,-8.9281811011843644,3.0361850284324117e-11
12.399999999999984,697.78774791163585,-1628.7315420119312,1771.9125760262993,-66.808544197331457,22.739988542918589,-0.76442388300255248,-0.76442388300255348,-1.799417039094837,-11.869711246006839,9.6586758243801469,1.7375680525704302,25,90,-1.489444733829083,-9.4105525056387993,2.7870992438233672e-11
12.599999999999984,371.51498547106161,-1212.6037041037973,1268.2393810459494,-72.96609274347334,22.140090621431622,-0.78516421474521225,-0.78516421474521081,-2.6051041492687106,-17.184362127163443,9.890823587133875,2.0759163338097864,25,90,-1.5918267293173494,-9.4067339826414376,2.6210420540839251e-11
12.799999999999983,230.12177819197106,-930.40102621243693,958.43732313354246,-76.107497319713616,20.780025113390963,-0.83663075050884261,-0.83663075050884328,-3.4801696469997534,-22.956662018596948,10.05466415354147,2.4905572239981346,25,90,-1.1985586629998355,-8.7626655925431702,2.5242235764425485e-11
12.999999999999982,159.47565848808713,-729.94176760003438,747.15960124813466,-77.675828208595149,18.703234976019377,-0.9296980570430009,-0.92969805704300079,-4.4564445479316523,-29.39658168091978,10.141025456700865,2.990041937751915,25,90,-0.32838613956267393,-7.4793696585116241,2.4902792496200687e-11
13.199999999999982,120.88030730261409,-578.52035020726771,591.014250502908,-78.197996801915252,16.040273344932057,-1.0844165554188039,-1.0844165554188046,-5.5792116578197346,-36.802825537312863,10.139479625327949,3.5826660464963922,25,90,0.847634063770343,-5.7091795150612139,2.5177625824166792e-11
13.399999999999981,98.958938031424736,-457.44230431550324,468.02385964156235,-77.793250081241467,13.011723083497683,-1.3377246840037407,-1.3377246840037404,-6.9161832162277994,-45.62205198545761,10.039444677078301,4.2735617969253603,25,90,2.1307282400817225,-3.6351546400712178,2.6104344519519026e-11
13.59999999999998,86.895961719101962,-355.4988904251328,365.96498364814664,-76.264304594875838,9.9070277349162534,-1.7594722569505787,-1.7594722569505774,-8.5733038876536867,-56.553116570412669,9.8314387221355233,5.0573440738779283,25,90,3.3794637365985176,-1.3946309116590774,2.7725378990785062e-11
13.799999999999979,81.55511237750774,-265.41589343749985,277.66316436310774,-72.919225393416141,7.0368919599193562,-2.4854945325517104,-2.485494532551709,-10.723918622753674,-70.739475459114374,9.5082771991059065,5.90092334151218,25,90,4.5169760927604008,0.90962223516667429,3.0165127481148611e-11
13.999999999999979,81.692441015721855,-181.96563021263233,199.46214051239812,-65.822573476694515,4.6690891101697707,-3.7791004814356284,-3.7791004814356284,-13.66940295548787,-90.169128368691716,9.0659199901704746,6.7085758582562267,25,90,5.5100358077376725,3.1526916758234251,3.3574989402856014e-11
14.199999999999978,87.349657375369247,-100.86569270059272,133.43107062286805,-49.107447640574328,2.9723253758848966,-6.0813250452120995,-6.0813250452120986,-18.012345745284215,-118.81700473799684,8.5037126060700317,7.2743797189844477,25,90,6.350312489248946,5.120979602163362,3.8173867090810659e-11
14.399999999999977,99.886588899648189,-18.014198096958452,101.49799000514139,-10.223203269714382,2.0238367250872242,-9.4065526731749731,-9.4065526731749713,-25.220018366409445,-166.36184337726056,8.1721725343191736,7.6433604258397398,20,320,7.0428516122934131,6.5140395038139793,1.1293209220257607
14.599999999999977,122.67913032752259,71.171914677337639,141.82951193864943,30.120029959267487,1.9327064652356294,-9.9504721885126717,-9.9504721885126717,18.939497554487733,124.93288783644437,8.5046838288472593,8.0415708046781162,20,320,7.5995139913993537,7.1364009672302107,0.90516983744790558
14.799999999999976,163.0900306984278,172.34970219980443,237.28206413796931,46.581224124673028,2.5621440937031834,-7.1598078432591699,-7.1598078432591672,11.626792921746569,76.695213894200791,8.749767745258751,7.8221734985223259,20,40,8.0351407761113602,7.1075465293749351,0.71462696918577251
14.999999999999975,237.64009049357745,292.04661993593794,376.51565814159954,50.864543437444318,3.5420317316249479,-5.0413839303138461,-5.0413839303138452,7.4191682326522752,48.939952603443189,8.9140374524048518,7.2821585616726541,20,40,8.3652351816203332,6.7333562908881355,0.54880227080111066
15.199999999999974,385.67034676416915,431.40980519214668,578.66746615748184,48.204025466827538,4.6444896131381146,-3.7997592275648406,-3.7997592275648406,4.5991947125099975,30.338221777157422,9.0049844575463762,6.6624707665436924,20,40,8.6045923463109162,6.2620786553082324,0.40039211123227048
15.399999999999974,696.66299830626645,541.90973458486576,882.61287869989565,37.878095857620622,5.7027054442263756,-3.0780471399622926,-3.0780471399622926,2.4782202569537537,16.347382632790328,9.0298763022666009,6.0862829278190258,20,40,8.7665814020183763,5.8229880275708013,0.26329490022700847
15.599999999999973,1222.4723184107354,337.12484047048656,1268.1055663243378,15.417418035978201,6.5890470827856875,-2.6569895807659893,-2.6569895807659893,0.74512033840363534,4.915126992921576,8.9950980451089499,5.6001791226396733,20,40,8.862867371169628,5.4679484487003513,0.13223067390164825
15.799999999999972,1312.3181324153622,-410.98017789707029,1375.1667489037291,-17.389050789131254,7.2190051635151509,-2.4219667177889761,-2.4219667177889765,-0.76936295810580768,-5.0750415038213346,8.9058172825927251,5.214805654589119,20,40,8.9034234033800317,5.2124117753764256,0.0023938791600084572
15.999999999999972,807.47445878654742,-740.78567604976138,1095.8003556456486,-42.533602208105243,7.5506424649158035,-2.3142970216218708,-2.3142970216218708,-2.1709025389062466,-14.320185771388704,8.9200461034384251,5.0805101328427344,20,310,8.896711223101061,5.0571752525053704,0.304645177547817
16.199999999999971,458.68664461269981,-676.02265632404828,816.94557334591116,-55.842801799082196,7.5792075327105985,-2.3054717548627774,-2.3054717548627761,-3.5346464476556911,-23.316013897201774,8.90318907646372,5.0510835074473999,20,310,8.8499509055437908,4.9978453365274706,0.19596222083433371
16.39999999999997,286.26761032791899,-552.72468077324515,622.4578037576066,-62.619421169940779,7.3295470884087717,-2.3849750509962662,-2.3849750509962657,-4.9222442567378959,-32.469192377540395,8.8389231803870079,5.0978667330434604,20,310,8.7694345761526709,5.0283781288091234,0.089555022219451635
16.599999999999969,197.3661899130116,-443.9939272120892,485.88478091209333,-66.033679653158288,6.8481834549691678,-2.5549631707083393,-2.554963170708338,-6.3925310551806476,-42.167822193289034,8.7466527335127253,5.2276235809902172,20,130,8.6608658100148794,5.1418366574923713,0.018879579293297841
16.799999999999969,147.4888564514871,-354.65111191806596,384.09682888835192,-67.419025798382492,6.1960489579021889,-2.8284174995422444,-2.8284174995422444,-8.0100765745344056,-52.837832438195562,8.7024174309145597,5.5022835632364666,20,130,8.5297259681362441,5.329592100458151,0.13387324229481024
16.999999999999968,117.51590978018696,-280.0357577132981,303.6939489840488,-67.234833569478795,5.4423015638439933,-3.2286602629230323,-3.2286602629230332,-9.8540274818813263,-65.001307800766412,8.61863555048844,5.8162404868751478,20,130,8.3816803619878222,5.57928529837453,0.26061705354368281
17.199999999999967,98.705676486850692,-215.58153008912697,237.10378884846187,-65.398957261963901,4.6593745238418363,-3.7872315042450655,-3.7872315042450655,-12.029026641627638,-79.348516605392817,8.4959951620673859,6.1445025737713497,20,130,8.2230394627945316,5.8715468744984953,0.4055104603016314
17.399999999999967,86.765141125750986,-157.8399716117182,180.11564716303658,-61.202262834074595,3.9194441916095681,-4.5323172090560542,-4.5323172090560533,-14.678673491115175,-96.826701108485793,8.3339538228059808,6.4484778237578437,20,130,8.0612771965608747,6.1758011975127376,0.57692880097440868
17.599999999999966,79.495924165779684,-104.22422468695895,131.08123805705031,-52.665806293509,3.2928682825384072,-5.4473691315724562,-5.4473691315724535,-17.993529333939723,-118.69288377854569,8.1308200043144598,6.672212241022093,20,130,7.9055690900370053,6.4469613267446384,0.78636653512191224
17.799999999999965,75.811736871846705,-52.65772143833405,92.305227775046987,-34.783277462464802,2.849055523878365,-6.3680844705236206,-6.368084470523617,-22.165587069362147,-146.21353049090763,7.8839552712589622,6.7444807957494808,20,130,7.7672216066365261,6.6277471311270446,1.050210527657061
17.999999999999964,75.335276250631338,-1.2782063802481174,75.34611907264663,-0.97203870723976815,2.654925151281232,-6.8820026235974012,-6.8820026235974012,-27.158149683856159,-179.14657231731084,7.6597187392256663,6.6632717198195959,20,220,7.6597187391755011,6.6632717197694307,3.1609895345664012
18.199999999999964,78.298369974992497,51.827989128918055,93.8976847312438,33.501744567737958,2.7542851654682909,-6.6085413292387907,-6.6085413292387898,22.19132232510891,146.38329105664613,7.6635873607762575,6.5937311564791887,15,220,7.5979185146577377,6.528062310360669,3.9956735053839596
18.399999999999963,85.694118938966554,108.9163594665887,138.58663492624717,51.804744931062167,3.1355919571666848,-5.7403881089904987,-5.7403881089904987,17.511700172781911,115.51453607559971,7.7809052070610072,6.4339468974755478,15,140,7.5958419135880639,6.2488836040026046,4.5656493470397832
18.599999999999962,99.813559035523753,172.96212882200064,199.69638097365794,60.011472743287577,3.7335509317654143,-4.7691976851313704,-4.7691976851313678,13.658999225611124,90.100500992805266,7.9725962863312088,6.2106759140933017,15,140,7.6628043851083083,5.9008840128704012,4.9650104264533734
18.799999999999962,125.64661492666117,248.15130525140395,278.14769842747961,63.145508009027772,4.445541146636339,-3.9756720661177161,-3.9756720661177134,10.516521466769557,69.371396630643986,8.2313065293581484,6.0103319070691708,15,140,7.7986147735037656,5.5776401512147888,5.0706401590287618
18.999999999999961,174.60663086212898,340.1260798169439,382.32607249920306,62.82591541303097,5.1365348850812929,-3.4257303237022096,-3.4257303237022079,7.8878632276621907,52.031661825011312,8.5362661054149278,5.9051042897442008,15,140,7.9899680149573609,5.3588061992866338,4.8463759432526556
19.19999999999996,274.91314617810707,452.79130049267923,529.71426235603383,58.735885317716445,5.6540161441811367,-3.1051192953612827,-3.1051192953612827,5.6048074109317483,36.971665885027093,8.8557311763204503,5.9382245271121219,15,140,8.2107258085494692,5.2932191593411408,4.3728190296238614
19.399999999999959,496.26950615600271,559.2436885165107,747.68771949649863,48.414341801992506,5.8648932103493747,-2.9912094860634264,-2.9912094860634264,3.5345457428334814,23.315349605859222,9.1537049707845171,6.1242302561179347,15,140,8.4272665461940921,5.3977918315275097,3.7811598379552507
19.599999999999959,907.8942219730144,450.30606880563585,1013.4335073872243,26.38093208377833,5.7010916641487679,-3.0789367866317727,-3.0789367866317727,1.5678026655817958,10.341885470050254,9.3983959961915389,6.4556649737556278,15,140,8.6070007380983284,5.6642697156624173,3.1776876734087551
19.799999999999958,1023.6772280216004,-115.88078523659013,1030.2152316661973,-6.4584183323861248,5.1865423666405315,-3.3918500179880295,-3.3918500179880295,-0.39392725322849292,-2.5985097651997906,9.5687798912728841,6.9091992745685857,15,140,8.7260400142737815,6.0664593975694832,2.6206903135291442
19.999999999999957,647.26439699440596,-378.53030925660892,749.82424250115832,-30.319761481609476,4.4262415419021988,-3.9936229091123305,-3.9936229091123305,-2.451097891298855,-16.168472106971251,9.6568492948383202,7.4478178689561512,15,140,8.7727661366775109,6.5637347107953419,2.1315986790074053
20.199999999999957,386.5401411955043,-328.33617732812507,507.16656642358276,-40.345346099558412,3.5640104954601726,-5.0085367175111886,-5.0085367175111859,-4.7234754167499098,-31.158029548634456,9.6656335049395228,8.0186904720521177,15,140,8.7468022512575665,7.0998592183701614,1.7115343380195722
