mhz,zreal,zimag,zmag,zphase,vswr,s11,s11_real,s11_imag,s11_ang,gain_max,gain_net,gain_max_theta,gain_max_phi,gain_viewer,gain_viewer_net,fb_ratio
7,336.24024582405309,97.483438059181609,350.08645161967917,16.168035529901505,1.8875356667144836,-10.246830851661024,-10.246830851661024,3.8325920847545887,25.281388572741381,5.244108168710568,4.8131126032999649,50,270,-1.7085890076711039,-2.1395845730817067,8.91617175574254e-12
7.2000000000000002,420.73641655046129,224.27988748303167,476.78150146699761,28.06051907582648,2.8225252881865357,-6.4335360835506101,-6.4335360835506101,3.8794958233247105,25.590785350191922,4.9748528223580486,3.8548238080493533,45,270,-1.3737594581590784,-2.4937884724677737,8.2729653355527706e-12
7.4000000000000004,558.22940268854097,346.00602367193795,656.76497656564402,31.791779629356036,3.9698441177932811,-4.472182250362259,-4.4721822503622564,2.95262913664794,19.476783039793371,4.7453728151333587,2.8268519261092697,45,270,-1.11150444116214,-3.0300253301862292,7.2835653548708688e-12
7.6000000000000005,779.10762736463823,442.1212538633975,895.8124235215198,29.573668655765179,5.2149410737612865,-3.372910157175296,-3.3729101571752946,1.9795905448572657,13.058211433076627,4.5228382512040666,1.8471919135769799,45,270,-0.90812886745565524,-3.5837752050827421,6.3973484131097952e-12
7.8000000000000007,1116.1633061596694,442.89223482184525,1200.8222423334657,21.643117423525165,6.4844829656825222,-2.7005222469979291,-2.7005222469979278,1.091783930107018,7.2018657775518671,4.3376893317228333,0.99380669646095265,40,270,-0.75017426637444395,-4.0940569016363249,5.9248279544993544e-12
8,1521.7057414084111,193.10436498687955,1533.9092734618655,7.2321748771475702,7.7331717761433971,-2.259046165070445,-2.2590461650704445,0.28996951826549866,1.9127608426374216,4.1996866407392917,0.28042307527174071,40,270,-0.62623698798188798,-4.5455005534494388,5.4031267950947067e-12
8.1999999999999993,1698.6559170392459,-385.02404630299111,1741.7449413516231,-12.771094082413404,8.9354614359005495,-1.952317131165926,-1.9523171311659258,-0.44645196979377511,-2.9449848765068767,4.0863173604854017,-0.32567371805345857,40,270,-0.52715947269262631,-4.9391505512314868,5.0058238788752285e-12
8.3999999999999986,1408.3925153097,-918.27740112256936,1681.3098651327791,-33.10450687222049,10.078348029280594,-1.7293635316164588,-1.7293635316164586,-1.1382713197935399,-7.5085161427374612,4.0003695553324095,-0.83463710646423284,40,270,-0.44567616792524889,-5.2806828297218908,4.736776515707163e-12
8.5999999999999979,959.59324030525113,-1094.2663363628114,1455.4167793922197,-48.751556281320383,11.155949502607706,-1.5613670897423526,-1.5613670897423513,-1.8030206676007112,-11.893482294559387,3.9768498057973107,-1.2232626291929729,35,270,-0.37594291743438857,-5.5760553524246719,5.3163373231050177e-12
8.7999999999999972,621.16057322594941,-1046.7760770416623,1217.2019607267819,-59.314958579993117,12.165686271330792,-1.4311616178825055,-1.4311616178825051,-2.4552803843049107,-16.19606158911559,3.989771878107351,-1.527132120937146,35,270,-0.3130941671294567,-5.8299981661739535,5.6731384857292819e-12
8.9999999999999964,409.13958753761648,-933.40698181269613,1019.1387519798949,-66.330754776278141,13.105552099988286,-1.3281097641007458,-1.3281097641007464,-3.1076330267560559,-20.499253860963655,4.0345951369766926,-1.7580535245796725,35,270,-0.25286056927505918,-6.0455092308314242,6.2083402296656245e-12
9.1999999999999957,279.11029428846098,-816.11124396200739,862.51963392087862,-71.119296389346758,13.971982570978691,-1.2454591277750451,-1.2454591277750446,-3.7715902210905683,-24.878994635466878,4.113448952236018,-1.9189570398596558,35,270,-0.19124145871116205,-6.223647450806836,6.9547296887767383e-12
9.399999999999995,197.17986195169351,-711.18608290200496,738.01459502694547,-74.503702732241166,14.757930862274247,-1.1789213605331839,-1.1789213605331845,-4.458399795448833,-29.409479315508747,4.2282829285300174,-2.0108462575299155,35,270,-0.1242193304808768,-6.3633485165408095,7.9132711905290645e-12
9.5999999999999943,143.61757983798813,-620.51296984766816,636.91628569828072,-76.968368587682676,15.45087074345356,-1.1258974717778281,-1.1258974717778278,-5.1797748225055917,-34.167972252505344,4.3805347827980796,-2.0331135114808472,35,270,-0.047511171240443351,-6.46115946551937,9.0974653194541831e-12
9.7999999999999936,107.36928436149643,-542.2635467936426,552.7910250768557,-78.800181917078433,16.030579115352783,-1.0850740450296483,-1.0850740450296477,-5.9486111001903543,-39.23953955085851,4.5705829171888466,-1.9839133744914763,35,270,0.043628315463444707,-6.5108679762168782,1.0533348917148781e-11
9.9999999999999929,82.126128483197874,-474.04993202632517,481.11125432045571,-80.171426114470506,16.466779056515946,-1.056258901516951,-1.0562589015169506,-6.7797603355012352,-44.722149313430386,4.7969365361173146,-1.8606335015351005,35,270,0.15450098929753112,-6.5030690483548836,1.222960093081157e-11
10.199999999999992,64.165607336341452,-413.7438506083995,418.68986025590249,-81.1844919513386,16.717175064503756,-1.0403997187060094,-1.0403997187060079,-7.6909223766201285,-50.732557179660162,5.055136191189705,-1.6605245204748815,35,270,0.2908519887764367,-6.4248087228881499,1.419972194497394e-11
10.399999999999991,51.21406844519543,-359.61579220897477,363.24426879552783,-81.894821412936025,16.727245157663614,-1.0397718825048576,-1.0397718825048574,-8.7037105008526527,-57.413333412651788,5.3364089345004571,-1.3815719473852512,35,270,0.45838052227549531,-6.2596003596102125,1.6453355234301015e-11
10.599999999999991,41.839852812565844,-310.29216150476122,313.10030146052878,-82.320545183116622,16.434405910806529,-1.0583447094458334,-1.0583447094458347,-9.844914850901068,-64.941197055965716,5.6412199536721719,-1.008783101344882,30,80,0.66168269136756119,-5.9883203636494926,0.40287914021674998
10.79999999999999,35.120527585524442,-264.67720897902927,266.9971468214863,-82.441467891127331,15.780280772910299,-1.1023307822553434,-1.1023307822553441,-11.147906962926871,-73.536280791168551,5.9576763828042356,-0.53656090811945667,30,80,0.9025650450288385,-5.5916722458948538,0.46654240286885729
10.999999999999989,30.455262877395779,-221.87976420921987,223.96015896241519,-82.184407982989683,14.733865248641724,-1.1808528884115181,-1.1808528884115186,-12.653922148808762,-83.470590070306827,6.2395817980676274,0.0066401200786678771,30,80,1.178099965514682,-5.0548417124742775,0.53662439158083297
11.199999999999989,27.457158137939317,-181.15252297733224,183.22153834651834,-81.381319896999585,13.322196360151583,-1.3064299697952748,-1.3064299697952739,-14.412497328005465,-95.070891238934053,6.4578031140022629,0.60396885913402087,30,280,1.4794874691495479,-4.3743467857186946,0.61351968863110584
11.399999999999988,25.892126728372769,-141.84235332292451,144.18618318931766,-79.655037521680953,11.65320996358188,-1.4944045611690115,-1.4944045611690124,-16.479451562365814,-108.70539029475601,6.5849792742028432,1.2260206093873949,30,280,1.7931793554154458,-3.5657793094000025,0.69808602012197229
11.599999999999987,25.647618338251988,-103.34766003869824,106.48257679967641,-76.062571511734873,9.9075082621707349,-1.7593863354557144,-1.759386335455714,-18.909435802588717,-124.7345878832718,6.6396142623068517,1.8653475948346596,30,70,2.1048562619724356,-2.6694104054997565,1.3092101126095022
11.799999999999986,26.724127562015457,-65.07834430660526,70.35175826971161,-67.674717236525339,8.2892471544470485,-2.1059568422830037,-2.1059568422830024,-21.738992558247737,-143.39953375971817,6.6773942539775701,2.5235346941154502,30,70,2.4047226429190962,-1.7491369169430238,1.4485936053929351
11.999999999999986,29.249876995513329,-26.413450070603723,39.410983860910342,-42.082911554616331,6.9594559739091482,-2.5135353828988318,-2.5135353828988327,-24.958099545921524,-164.63411672938454,6.6283060357690484,3.0569911695874343,30,290,2.6911200928187382,-0.88019477336287588,1.5956106252952411
12.199999999999985,33.527921834409128,13.348926057861997,36.087606867628608,21.709655698688238,5.9925160935141264,-2.9262800216592213,-2.9262800216592222,26.096553973549472,172.14384072837439,6.578942486515289,3.4829649985240874,30,60,2.9705407723725785,-0.12543671561862313,1.746134965845128
12.399999999999984,40.140609848722718,55.054962093802715,68.13455371672606,53.904184780623403,5.3746848782678134,-3.2702389216138101,-3.2702389216138084,22.449133972611858,148.0839250649006,6.5937589463658224,3.8287145024197269,25,60,3.2546967725565161,0.48965232861042063,2.0576578526494766
12.599999999999984,50.170254239298643,99.772767965890154,111.67658500335341,63.304684413061636,5.0305751228151436,-3.4998342357250762,-3.4998342357250758,18.88857421478599,124.5969760801313,6.6809566124124631,4.1105582771176534,25,300,3.5566951358738725,0.98629680057906288,2.0967544485085492
12.799999999999983,65.679167944821586,148.85152349103424,162.69766177645576,66.191034846681674,4.8542389437839324,-3.6306361829077183,-3.6306361829077183,15.584511803683727,102.8019914231576,6.7911032712299182,4.323505797447341,25,300,3.8874694207111311,1.4198719469285539,2.1174455471302069
12.999999999999982,90.794372692910187,203.77660137509912,223.08859536221283,65.984236822983249,4.7321881573607714,-3.7271381413661686,-3.7271381413661682,12.607757039617137,83.16606560274893,6.9353814368676616,4.5401926428141275,25,300,4.2527227249593764,1.8575339309058423,2.1185428546438154
13.199999999999982,134.17577388486816,264.89050229716412,296.93453235494047,63.136282537948695,4.556747076923175,-3.8753529291044817,-3.8753529291044817,9.9375666560437956,65.552367312538735,7.114190715237287,4.8249272707382538,25,300,4.6494897213997186,2.360226276900685,2.0972729201116911
13.399999999999981,213.5358907047669,324.67656606938198,388.60320273214927,56.667559273386452,4.2365674453147326,-4.1792407994442815,-4.1792407994442806,7.5004957809057355,49.476423300975242,7.3421697564342452,5.2519768869151076,25,50,5.0618030629430972,2.9716101934239592,1.4786058356261835
13.59999999999998,350.83727819481732,341.33085330598817,489.48293860944904,44.213133691733653,3.7155199996266921,-4.793531708949974,-4.7935317089499749,5.2110312760359188,34.374152959878124,7.5768436783882471,5.8270478022626815,25,50,5.4561549224771255,3.7063590463515594,1.3840333151329287
13.799999999999979,483.97531640714658,221.24915005236446,532.14969067950358,24.567493591964833,3.0061941508552836,-6.0071806532669578,-6.0071806532669578,3.0315746459539641,19.997540807043823,7.7332064369192928,6.4793367540644109,25,50,5.7801986764170055,4.5263289935621227,1.2641619963400625
13.999999999999979,436.13609180702491,52.481449368395673,439.28236147666246,6.8615664329134898,2.220475011306958,-8.4278208364249867,-8.4278208364249867,1.1846016087985625,7.8141302057843989,7.7481304805707909,7.0747906212520251,25,50,5.971197785789327,5.2978579264705612,1.1193127956227884
14.199999999999978,309.77092281717626,21.968929927964659,310.54896313654757,4.0566202498244817,1.5621326950892871,-13.175255455306669,-13.175255455306669,1.3415849729570644,8.8496584699412626,7.5710417538898422,7.3567885193109177,25,50,5.9782876914523397,5.7640344568734152,0.95229183950844987
14.399999999999977,229.41169134010937,70.485305436651444,239.99562997277192,17.079247626218617,1.4257484545148713,-15.113853664532083,-15.113853664532083,8.797022736665653,58.028860147564096,7.1905325727923071,7.0546463138429267,25,50,5.7889278618393947,5.6530416028900143,0.7684227281206325
14.599999999999977,191.84391029466755,137.38776553858673,235.96500595815925,35.60809783313637,1.9915620975264343,-9.5915620932770551,-9.5915620932770551,11.229694847021278,74.075788057427872,6.6428849516277921,6.1374629455457024,25,50,5.4375898891495336,4.9321678830674438,0.57483049348048398
14.799999999999976,179.57530460369307,206.90015215222499,273.96160859529755,49.044234811642639,2.8530244262805722,-6.3584123615219887,-6.3584123615219887,10.163660134600965,67.043774944439789,5.9937616612052995,4.851381228802774,25,50,4.9878848455572919,3.8455044131547669,0.37919297453517797
14.999999999999975,183.40374188777241,277.32656196186565,332.48602152274788,56.522231088344391,3.8441116851840578,-4.6253500191000079,-4.625350019100007,8.7237390363290999,57.545450052441652,5.3252380346987938,3.48951496541999,25,300,4.5051417889511907,2.6694187196723869,0.72489728675058629
15.199999999999974,199.85271471685701,350.20614952790748,403.21886705220101,60.287823262643869,4.8627227426752828,-3.6241163919514658,-3.6241163919514636,7.3996183585727549,48.810993415451712,4.7358091038930263,2.263216974601657,30,50,4.0390932266104542,1.5665010973190849,0.45699183232773322
15.399999999999974,228.8059283322284,427.80011196475789,485.14439977910928,61.860209470793755,5.8463921456774024,-3.0008643752015116,-3.0008643752015112,6.2480976225239271,41.215078553178095,4.2026468489948767,1.1828907663125241,30,50,3.6202820580697859,0.60052597538743324,0.31581818419690666
15.599999999999973,272.75039858328813,512.57064729965543,580.62160517890675,61.981550272046597,6.7654982340768868,-2.5866496364472003,-2.5866496364472003,5.2464158499167359,34.607564484501431,3.7770940475681076,0.29730530552028966,25,130,3.2639331169494805,-0.21585562509833744,0.31395541330171978
15.799999999999972,337.15362999578451,606.96476941598905,694.31894798539031,60.948931990508918,7.6110589311118275,-2.2957106582933142,-2.2957106582933138,4.3622470213184155,28.775215195722105,3.4225024661357462,-0.44357800242258216,25,130,2.975432661311654,-0.89064780724667436,0.45454604584844438
15.999999999999972,431.95251111460976,712.79022684883432,833.45838489358891,58.784040894097195,8.384595316108582,-2.0817769832604083,-2.0817769832604083,3.5677246077703861,23.534211347031476,3.1181482919516479,-1.0747417262652577,25,130,2.7548254648407484,-1.4380645533761571,0.58374670842125131
16.199999999999971,574.59533883586698,829.03768830380693,1008.6938544672635,55.27466895434096,9.0918198448830445,-1.9184656785531249,-1.9184656785531253,2.84094467888902,18.740065405435477,2.9818254204171426,-1.4904562319899668,25,80,2.5997997533350707,-1.8724818990720387,0.55163114058601403
16.39999999999997,795.02399366300085,944.90634668823043,1234.8729305121096,49.923460687286116,9.7392340035561933,-1.7899987463855149,-1.7899987463855151,2.1648950349457401,14.280557749773259,2.9754272424810195,-1.7381909488106433,25,80,2.5074533099259706,-2.2061648813656922,0.49667426592694497
16.599999999999969,1139.0989943220991,1019.0327641533218,1528.3894442463206,41.815669925406873,10.332399710476226,-1.686571055939815,-1.6865710559398159,1.5261380805675404,10.067048351939663,3.0359043165417554,-1.8879214709540055,25,270,2.4752199891509536,-2.4486057983448073,3.188838066386703e-11
16.799999999999969,1642.596025025056,929.91742794660433,1887.5561247885962,29.515357776941276,10.875040238262498,-1.6019243190771484,-1.6019243190771499,0.91372631854353004,6.0273229181181236,3.1290715043906814,-1.9787216547895903,25,270,2.5012747071218659,-2.6065184520584057,2.9871007603851892e-11
16.999999999999968,2179.8096854119399,450.55430094844104,2225.8862151329386,11.678257852481364,11.3684720833689,-1.5320258095094701,-1.5320258095094696,0.31837679177147571,2.1001471608040561,3.2273954523903332,-2.0413047010417613,25,270,2.5846141924437265,-2.684085960988368,2.8557593594415151e-11
17.199999999999967,2286.7540790184385,-413.86816910448988,2323.9042749875412,-10.258629074943558,11.811084011574909,-1.4743327395181072,-1.4743327395181067,-0.26815783787583691,-1.7688818293844915,3.3649119980423423,-2.0433080860424528,20,270,2.7249263361997142,-2.6832937478850809,3.6533546070217611e-11
17.399999999999967,1798.3759035754586,-1068.9002406441332,2092.0572685779739,-30.725969140348614,12.197718283612764,-1.427386331821574,-1.4273863318215749,-0.85359228492314343,-5.630653552638119,3.577724367655545,-1.9488668064780228,20,270,2.9222974105580595,-2.6042937635755083,3.5711939068721047e-11
17.599999999999966,1206.1902138471485,-1242.7388833511918,1731.8472115557993,-45.855038657680147,12.518857960676232,-1.3906116405807989,-1.3906116405807991,-1.4455406176927907,-9.5353936044858596,3.8078282600926956,-1.8147248080733451,20,270,3.1767729168613847,-2.445780151304656,3.5331029719435616e-11
17.799999999999965,785.91800060839046,-1166.300810656152,1406.3871034027179,-56.025730584469258,12.759638218189508,-1.3642610830482367,-1.3642610830482376,-2.0519278181909146,-13.535378497819883,4.0554724106112614,-1.6376843717986436,20,270,3.4877694146664155,-2.2053873677434894,3.5318493462370533e-11
17.999999999999964,525.51342575224623,-1023.5613806062784,1150.5834435252805,-62.823282160259524,12.898756852571072,-1.3494873483978498,-1.3494873483978485,-2.6814204068681473,-17.687776244847282,4.3195192748104727,-1.4139213972900855,20,270,3.8533261242871024,-1.8801145478134558,3.5610684684733785e-11
18.199999999999964,365.61238184367249,-880.81279802175357,953.67898106035341,-67.457384282372857,12.907639231415807,-1.3485549633961234,-1.3485549633961242,-3.3439225929825067,-22.0579191734601,4.5969352783583517,-1.1390649530849544,20,270,4.26920787029509,-1.4667923611482161,3.6158422685731527e-11
18.399999999999963,264.83323461863387,-754.5662444095492,799.69172770568275,-70.660246125597311,12.750529327938807,-1.3652397183100762,-1.3652397183100744,-4.0511870483937615,-26.72333284794594,4.8821304454384871,-0.80837582990116186,20,270,4.7279051408785815,-0.96260113446106743,3.6899990507504765e-11
18.599999999999962,199.37223433651019,-646.05344036258316,676.11710200871426,-72.849762564858324,12.386760347447161,-1.4055061660588219,-1.4055061660588219,-4.8175940208747861,-31.77887542792071,5.3494372599463578,-0.23389524760434899,15,140,5.2176496075471199,-0.36568290000358683,1.8541756492461994
18.799999999999962,155.8515989919232,-552.67531862527437,574.22968290213612,-74.251820909578996,11.777005205616051,-1.4786195819920744,-1.4786195819920747,-5.6611720725610866,-37.343470888249513,5.9070063128625883,0.50937346165210595,15,140,5.7217113769624266,0.32407852575194429,1.7473864814997113
18.999999999999961,126.60725811885042,-471.35168153932301,488.05922335134755,-74.96496596381678,10.895018120983805,-1.5989702821020084,-1.5989702821020089,-6.604946496436308,-43.56900374104525,6.446559172211451,1.3321364950182621,15,140,6.2183857765285584,1.1039630993353695,1.6430352366612664
19.19999999999996,107.1284576203952,-399.38081879920685,413.49914734718584,-74.984649712282391,9.7445069178405515,-1.7890232834566013,-1.7890232834566007,-7.6786407403649859,-50.651542343849577,6.9428542941846789,2.2273230933574446,15,140,6.6822482638159064,1.9667170629886721,1.5426148720610355
19.399999999999959,94.70636589558805,-334.56654001338677,347.71261903715566,-74.194676114420076,8.3754958429567932,-2.0840604605157971,-2.0840604605157984,-8.9207770654801415,-58.845195725452307,7.3703679140128076,3.1811881895640912,15,140,7.0870680665443402,2.8978883420956238,1.4472786420995098
19.599999999999959,87.713533051151131,-275.15326691728342,288.79574819510276,-72.318725683950021,6.8892793606900797,-2.5395035800872208,-2.5395035800872208,-10.381094636200549,-68.478064324185112,7.7076158479261112,4.1692070235250211,15,140,7.4102322674016685,3.8718234430005785,1.3578583762946579
19.799999999999958,85.214936363486927,-219.72846437472063,235.67389213891724,-68.802746723677473,5.4215021465206554,-3.2413358374491552,-3.2413358374491557,-12.123519242573234,-79.971829524932915,7.9417219486370332,5.1507855612626194,15,140,7.63744256881815,4.8465061814437362,1.2748948558997573
19.999999999999957,86.761028614810357,-167.13491715023491,188.3123910344612,-62.565824647065746,4.1052243412306586,-4.3184369878636026,-4.3184369878636018,-14.232509887794819,-93.883618418463854,8.0713051090318224,6.0649773505641189,15,220,7.7657351197952087,5.7594073613275052,1.1986875002412587
