mhz,zreal,zimag,zmag,zphase,vswr,s11,s11_real,s11_imag,s11_ang,gain_max,gain_net,gain_max_theta,gain_max_phi,gain_viewer,gain_viewer_net,fb_ratio
45,12.941186606565324,21.236469178016765,24.868894907791979,58.642495319574138,4.60214753445561,-3.8358609105429298,-3.835860910542928,19.941231338866988,131.54074499663477,6.3671235594990296,4.0502380047255251,20,80,5.7915530294738273,3.4746674747003223,0.00041728211621557242
45.5,15.2622885765542,23.009231861238806,27.610907327327435,56.443224893431037,4.0267219662973313,-4.4062467186659351,-4.4062467186659351,19.261931093755205,127.0597950091463,6.4077717240446583,4.4521907843352846,20,80,5.8060472891175552,3.8504663494081819,0.00044008911369133907
46,18.143040358003475,24.725956967861329,30.66827124910488,53.730084375120938,3.5075900862233236,-5.0937574173752163,-5.0937574173752154,18.531184224008715,122.23948145794341,6.4468093850062118,4.8386093364984983,20,80,5.8180473165214863,4.2098472680137728,0.00046225175163705105
46.5,21.717106284068795,26.250166912661893,34.069105774824052,50.398601012545733,3.0425964596494444,-5.9295563299115139,-5.9295563299115139,17.741575663931751,117.03089145248063,6.484240296060392,5.2040759387744329,20,80,5.8275325697260039,4.5473682124400447,0.00048306229848648594
47,26.117521960735871,27.35071909847996,37.81781046773434,46.32124163864912,2.6292854398132253,-6.9564789990251263,-6.9564789990251246,16.882303036831829,111.36276797488794,6.5350209780919197,5.5575757279414013,15,80,5.8344816539695987,4.8570364038190803,0.00041518068096616856
47.5,31.427314817496068,27.661207693161479,41.866675622530906,41.353089410512212,2.2649331380911604,-8.2361344343424108,-8.2361344343424108,15.935297900710017,105.11592398595599,6.6175121817917057,5.9111801171883718,15,80,5.8388723339928124,5.1325402693894784,0.00043190401146464644
48,37.576335999341609,26.656045083528824,46.07087764120125,35.351273144293863,1.9466305953951981,-9.8629031400965399,-9.8629031400965381,14.865641495626264,98.060020665638078,6.6992776230526649,6.2261991078502046,15,80,5.8406816682888056,5.3676031530863462,0.00044532142189466947
48.5,44.175000786888759,23.704984748923916,50.133392030345782,28.218690988338622,1.6715094444193197,-11.9940917737903,-11.9940917737903,13.594821861958007,89.677160122655636,6.7803375535462083,6.4968915377229228,15,80,5.8398845182128847,5.5564385023895992,0.00045427019293540057
49,50.35135625806533,18.304147974358628,53.57518931458695,19.977642902990077,1.4374581719997017,-14.920012757632648,-14.920012757632648,11.909970381099217,78.563171460938378,6.8607013577587601,6.7185099984565664,15,80,5.8364422979430213,5.6942509386408275,0.00045735444148888038
49.5,54.806192652507427,10.507387370853506,55.804336233172158,10.852995743770339,1.2464229424090372,-19.196207738159757,-19.196207738159753,9.0496126263734737,59.69504924622948,6.9403831378742442,6.8878068767789813,15,80,5.8303181587812869,5.777741897686024,0.00045283971232997682
50,56.31952092492007,1.2787240030925842,56.334035647098766,1.3006662977084944,1.1291073229188453,-24.34493355384766,-24.34493355384766,1.6296711920628539,10.749996279601937,7.0194027145192557,7.0034037949048979,15,80,5.8214793261582143,5.8054804065438566,0.00043848303674590068
50.5,54.498769732490551,-7.7425168116996588,55.046003205813953,-8.0857723561829271,1.1868847353496075,-21.365041266090898,-21.365041266090895,-8.4294151946235747,-55.603966261881695,7.0977722704333788,7.0659397638297881,15,80,5.8098798334756463,5.7780473268720556,0.00041127498038479965
51,50.041837856313897,-15.074202068256831,52.262961110448465,-16.763981380053266,1.3501696927308449,-16.536413326347478,-16.536413326347478,-12.320647407567478,-81.272169771857492,7.1754996162369906,7.0779986529854844,15,80,5.7954684200594855,5.6979674568079792,0.00036706130589355291
51.5,44.219579628424981,-20.053504579674915,48.554240478475826,-24.394211604373936,1.5531401282468247,-13.284789710294294,-13.284789710294294,-14.259884736047049,-94.064194425635961,7.2525950719797336,7.0438083604013002,15,80,5.778191904670857,5.5694051930924235,0.00029995064924563815
52,38.172513828303231,-22.813879494028765,44.470371142369245,-30.864734862654117,1.7861137310670181,-10.99026916947054,-10.99026916947054,-15.598930105485042,-102.89710060314263,7.3290639251881533,6.96877811752986,15,80,5.7579885041216698,5.3977026964633765,0.00020130034307808535
52.5,32.590533325624399,-23.874333874765149,40.399587626761651,-36.224799429530506,2.0473462373164106,-9.2766304890139661,-9.2766304890139644,-16.672236493167194,-109.97708074309413,7.4049093888035031,6.8589862235530381,15,80,5.7347911617420682,5.1888679964916031,5.7646235286149257e-05
53,27.756825183190667,-23.791506344582121,36.557859871640446,-40.601225508647637,2.3363262399736127,-7.9471202984366096,-7.9471202984366087,-17.59453217769768,-116.06093080173422,7.4802834349935967,6.7208479916799018,15,260,5.7085256692475186,4.9490902259338245,0.00015401336944687662
53.5,23.708895692598229,-23.007601596166051,33.037273891324709,-44.139957477960429,2.6526505844865436,-6.8885417537250602,-6.8885417537250593,-18.415322173430866,-121.47520666513547,7.5551887697500533,6.5604265693780448,15,260,5.6791096278889652,4.6843474275169568,0.00047730116261633475
54,20.371833454532865,-21.827913366210488,29.857484827460183,-46.976176518726852,2.9957623247612903,-6.0298165554304699,-6.0298165554304699,-19.159943242448371,-126.38704026729849,7.6296220449161307,6.3833025514125952,15,260,5.6464508495811501,4.4001313560776145,0.001002079963789076
54.5,17.635360578162022,-20.447434505169426,27.001916979447671,-49.223116656490845,3.3648918815044997,-5.3232440060661181,-5.3232440060661181,-19.843329465049568,-130.8949430800094,7.7036902060383783,6.1945314487457193,15,260,5.6104441689201723,4.1012854116275133,0.0019226436317352378
55,15.389811171092283,-18.984668435574523,24.438983683667708,-50.970247537488284,3.7590597544508211,-4.7352010295011651,-4.7352010295011651,-20.475400659143403,-135.06435039238352,7.7776142614970567,5.9985833122829169,15,260,5.5709624198036689,3.7919314705895291,0.003659981965641245
