mhz,zreal,zimag,zmag,zphase,vswr,s11,s11_real,s11_imag,s11_ang,gain_max,gain_net,gain_max_theta,gain_max_phi,gain_viewer,gain_viewer_net,fb_ratio
420,16.980068802237653,-21.710037566148159,27.561721057515417,-51.969975523171001,3.5583530430513615,-5.0169496569328196,-5.0169496569328196,-19.513138809604474,-128.7168667079892,2.6945473994042644,1.0514784956566856,-20,90,0.23547109396023164,-1.4075978097873472,2.1471697586402079
422,17.104704429430019,-20.541636029397939,26.73068881234493,-50.216371371223218,3.4705075427206244,-5.1514129558393771,-5.1514129558393771,-19.858805651878942,-130.99703051436333,2.7162934179120999,1.1336866181137291,-20,90,0.2127313376840588,-1.3698754621143121,2.2123397148468458
424,17.232081388570954,-19.384498765716476,25.936526779435926,-48.364123023827993,3.3870824231471834,-5.2861675785774231,-5.2861675785774231,-20.209338875468845,-133.30929501766997,2.7374666587844549,1.212808345991601,-20,90,0.19180630789000164,-1.3328520049028523,2.2756138148114164
426,17.360973765991222,-18.238248445515868,25.180093654786063,-46.41165908342672,3.3081561267066397,-5.4205250385978712,-5.420525038597872,-20.56483541633385,-135.65429964824989,2.7579417177575971,1.2885729345931032,-20,90,0.17290813539383204,-1.2964606477706619,2.3364627324153249
428,17.49025926459403,-17.102368620360998,24.462219473494752,-44.357563536420749,3.2337636676971795,-5.5537877767611459,-5.5537877767611459,-20.925412731943641,-138.03281920495115,2.7776043320607888,1.3607547849193979,-20,90,0.15621432338959049,-1.2606352237518004,2.394398264009661
430,17.618931389836487,-15.976228195599374,23.783746775426909,-42.200636709889984,3.1639035815953211,-5.6852551759147616,-5.6852551759147607,-21.291198825170575,-140.44569804853077,2.7963538608344414,1.4291728846680303,-20,90,0.14186310465710833,-1.2253178715093027,2.4489864660283649
432,17.746106631701256,-14.859105682501866,23.145568091266856,-39.939989731052329,3.0985448640501541,-5.8142287021368402,-5.8142287021368402,-21.662321593943474,-142.8937798474943,2.8141050982258426,1.4936890309811304,-20,90,0.12995060990013996,-1.1904654573445723,2.4998582195941328
434,17.871027213200719,-13.750212350920938,22.548657462261016,-37.575174611981986,3.037633559379163,-5.940016333856649,-5.940016333856649,-22.038897909471203,-145.37783553346677,2.8377944489107501,1.5612101552115325,-30,270,0.12052993614089806,-1.1560543575583195,3.1717734591551454
436,17.993060079690117,-12.648713627580092,21.994093922320793,-35.106349642896177,2.9810987643670819,-6.0619364946008574,-6.0619364946008547,-22.421022794411755,-147.8984919158469,2.8604278191715444,1.6247323410723842,-30,270,0.11361205184172345,-1.1220834262574368,3.2210460952950615
438,18.111692844274678,-11.553748297822105,21.483075138694129,-32.534476586878696,2.9288579062029969,-6.1793217318004121,-6.1793217318004112,-22.808759037337516,-150.45616317445379,2.8818603600807173,1.6841168549258307,-30,270,0.10916834114100556,-1.088575164013881,3.264125852225392
440,18.226527395791752,-10.464445259504894,21.016919743357295,-29.861542213154795,2.8808212294061133,-6.2915223840558365,-6.2915223840558356,-23.20212754515898,-153.05098722005806,2.9020536523363551,1.7393439062357183,-30,270,0.10713448787326939,-1.0555752582273674,3.3009506897565437
442,18.337271827710303,-9.3799377380731297,20.597057315390138,-27.090792105878823,2.8368954851254813,-6.3979104542092085,-6.3979104542092093,-23.601098703857403,-155.68276870614272,2.9209866120307444,1.7904204981078626,-30,90,0.10741533806413738,-1.0231507758587444,3.3315616561150661
444,18.443731273774606,-8.2993750024056556,20.225005531019448,-24.226959780552207,2.7969868581611332,-6.4978838597049924,-6.4978838597049924,-24.005584988575674,-158.35093028195567,2.9386539282508872,1.8373762197481471,-30,90,0.10989035916120334,-0.99138734934153672,3.3560917778567156
446,18.545798152272905,-7.2219317097623223,19.902334705388704,-21.276469514434869,2.7610031942427611,-6.5908711709365768,-6.5908711709365742,-24.415435039817641,-161.0544735166304,2.9550642003414893,1.8802591589998245,-30,90,0.11441933111951266,-0.96038571022215213,3.3747526815019082
448,18.64344223051976,-6.1468150788442157,19.630620820958114,-18.247587915493696,2.728855606508076,-6.6763368747435035,-6.6763368747435035,-24.830429392871682,-163.79195072866833,2.9702379079164123,1.9191320555938018,-30,90,0.12084794964461595,-0.93025790267799446,3.3878199806068099
450,18.736700833556714,-5.0732701238254432,19.411389127919328,-15.150498176937495,2.7004595475013393,-6.7537871216105207,-6.7537871216105199,-25.250278017514432,-166.56144875679047,2.9842053308822125,1.9540687846743019,-30,90,0.12901308461188529,-0.9011234615960253,3.3956183791937269
452,18.825669441361537,-4.0005832014207918,19.246051435733612,-11.997273338647211,2.675735434196914,-6.8227758363793525,-6.8227758363793516,-25.6746197848897,-169.36058544324661,2.9970045157850049,1.985151229925705,-30,90,0.1387475078595356,-0.8731057779997643,3.3985072883141347
454,18.910492846630834,-2.9280841245827536,19.135841145429421,-8.8017314401710163,2.6546089107493058,-6.8829109988176507,-6.8829109988176516,-26.103023928833728,-172.18651927333102,3.0086793621684018,2.0124665781934312,-30,90,0.14988397389863592,-0.84632881007633465,3.3968675658799059
456,18.991356987643314,-1.855147085718466,19.081750730521513,-5.5791662030441369,2.6370108275791657,-6.9338608405290465,-6.9338608405290447,-26.534993508422254,-175.03597221579841,3.0192778800823183,2.0361050439863684,-30,90,0.16225860064224773,-0.82091423545370235,3.3910897925683905
458,19.06848151824725,-0.7811906149640343,19.084476576229299,-2.3459607957683128,2.6228770085271633,-6.975359660198631,-6.9753596601986292,-26.96997080785405,-177.90526534276606,3.0288506500650625,2.0561580132286688,-30,90,0.17571354730819622,-0.79697908952819752,3.381564314894312
460,19.142113141066844,0.29432322472001926,19.144375718889702,0.88089281175525591,2.6121478691376612,-7.0072129395704552,-7.0072129395704543,27.167709620815188,179.20963368039028,3.0374494996345818,2.0727165813372253,-30,90,0.1900990266730776,-0.77463389162427876,3.3686731291491161
462,19.21251969857984,1.3718902263036368,19.261438055382722,4.0843331945361605,2.6047679407584163,-7.0293014464521519,-7.0293014464521519,26.728595570815688,176.31305280763132,3.0451263970333988,2.0858704507661954,-30,90,0.2052747143277765,-0.75398123193942679,3.3527835588427051
464,19.279984996219646,2.4519658587645679,19.435276124279834,7.2477831896281728,2.6006853462377384,-7.0415840424962974,-7.0415840424962965,26.288432049335736,173.40954917980042,3.0519325529065187,2.0957071471784174,-30,90,0.22111063335891998,-0.7351147723691811,3.3342435911632089
466,19.34480431628397,3.5349673915867594,19.665132811524579,10.355671560533017,2.5998512644929948,-7.0440989688037199,-7.044098968803719,25.847933685075471,170.50383678822621,3.0579177139213529,2.1023115106908374,-30,90,0.23748759871179612,-0.71811860451871945,3.3133786843490789
468,19.407280571842374,4.6212762125243918,19.949905589417064,13.393881071240434,2.6022194129239122,-7.0369634582796241,-7.0369634582796223,25.407827384188497,167.60071061148153,3.0631296281969855,2.105765418386699,-30,90,0.25429730518685234,-0.70306690462343413,3.2904898307659671
470,19.467721045727856,5.7112402570948362,20.28818444288537,16.350092199582441,2.6077455687266706,-7.0203716135739027,-7.0203716135739027,24.968840734873172,164.70497012719332,3.0676136604850104,2.1061476960417895,-30,90,0.27144213776324672,-0.69002382667997386,3.2658526547443105
